Time [s],Channel 0,Channel 1,Channel 2,Channel 3,Channel 4,Channel 5,Channel 6,Channel 7
0.000000000,0,0,0,0,1,1,1,1
0.000044500,0,0,0,0,0,1,1,1
0.000050542,0,0,0,0,1,1,1,1
0.000064625,0,0,0,0,0,1,1,1
0.000090792,0,1,0,0,0,1,1,1
0.000159208,0,0,0,0,0,1,1,1
0.000192417,0,0,1,0,0,1,1,1
0.000350417,0,0,0,0,0,1,1,1
0.000356458,0,0,0,1,0,1,1,1
0.000599000,0,0,0,0,0,1,1,1
0.000605042,0,0,0,0,1,1,1,1
0.000701667,0,0,0,0,0,1,1,1
0.000707667,0,0,0,0,1,1,1,1
0.000721792,0,0,0,0,0,1,1,1
0.000747958,0,1,0,0,0,1,1,1
0.000816375,0,0,0,0,0,1,1,1
0.000849583,0,0,1,0,0,1,1,1
0.001007583,0,0,0,0,0,1,1,1
0.001013625,0,0,0,1,0,1,1,1
0.001256167,0,0,0,0,0,1,1,1
0.001262208,0,0,0,0,1,1,1,1
0.001358792,0,0,0,0,0,1,1,1
0.001364833,0,0,0,0,1,1,1,1
0.001378958,0,0,0,0,0,1,1,1
0.001405125,0,1,0,0,0,1,1,1
0.001473542,0,0,0,0,0,1,1,1
0.001506750,0,0,1,0,0,1,1,1
0.001664750,0,0,0,0,0,1,1,1
0.001670792,0,0,0,1,0,1,1,1
0.001914375,0,0,0,0,0,1,1,1
0.001920417,0,0,0,0,1,1,1,1
0.002017000,0,0,0,0,0,1,1,1
0.002023042,0,0,0,0,1,1,1,1
0.002037125,0,0,0,0,0,1,1,1
0.002063292,0,1,0,0,0,1,1,1
0.002131750,0,0,0,0,0,1,1,1
0.002164958,0,0,1,0,0,1,1,1
0.002322958,0,0,0,0,0,1,1,1
0.002329000,0,0,0,1,0,1,1,1
0.002572542,0,0,0,0,0,1,1,1
0.002578583,0,0,0,0,1,1,1,1
0.002675208,0,0,0,0,0,1,1,1
0.002681250,0,0,0,0,1,1,1,1
0.002695333,0,0,0,0,0,1,1,1
0.002721500,0,1,0,0,0,1,1,1
0.002789917,0,0,0,0,0,1,1,1
0.002823125,0,0,1,0,0,1,1,1
0.002981125,0,0,0,0,0,1,1,1
0.002987167,0,0,0,1,0,1,1,1
0.003230750,0,0,0,0,0,1,1,1
0.003236792,0,0,0,0,1,1,1,1
0.003333375,0,0,0,0,0,1,1,1
0.003339417,0,0,0,0,1,1,1,1
0.003353500,0,0,0,0,0,1,1,1
0.003379667,0,1,0,0,0,1,1,1
0.003448125,0,0,0,0,0,1,1,1
0.003481333,0,0,1,0,0,1,1,1
0.003639333,0,0,0,0,0,1,1,1
0.003645375,0,0,0,1,0,1,1,1
0.003887917,0,0,0,0,0,1,1,1
0.003893958,0,0,0,0,1,1,1,1
0.003990583,0,0,0,0,0,1,1,1
0.003996625,0,0,0,0,1,1,1,1
0.004010708,0,0,0,0,0,1,1,1
0.004036875,0,1,0,0,0,1,1,1
0.004105333,0,0,0,0,0,1,1,1
0.004138542,0,0,1,0,0,1,1,1
0.004296542,0,0,0,0,0,1,1,1
0.004302583,0,0,0,1,0,1,1,1
0.004545125,0,0,0,0,0,1,1,1
0.004551167,0,0,0,0,1,1,1,1
0.004647750,0,0,0,0,0,1,1,1
0.004653792,0,0,0,0,1,1,1,1
0.004667917,0,0,0,0,0,1,1,1
0.004694083,0,1,0,0,0,1,1,1
0.004762500,0,0,0,0,0,1,1,1
0.004795708,0,0,1,0,0,1,1,1
0.004953708,0,0,0,0,0,1,1,1
0.004959750,0,0,0,1,0,1,1,1
0.005202292,0,0,0,0,0,1,1,1
0.005208333,0,0,0,0,1,1,1,1
0.005304958,0,0,0,0,0,1,1,1
0.005311000,0,0,0,0,1,1,1,1
0.005325083,0,0,0,0,0,1,1,1
0.005351250,0,1,0,0,0,1,1,1
0.005419667,0,0,0,0,0,1,1,1
0.005452875,0,0,1,0,0,1,1,1
0.005610917,0,0,0,0,0,1,1,1
0.005616917,0,0,0,1,0,1,1,1
0.005860500,0,0,0,0,0,1,1,1
0.005866542,0,0,0,0,1,1,1,1
0.005963125,0,0,0,0,0,1,1,1
0.005969167,0,0,0,0,1,1,1,1
0.005983250,0,0,0,0,0,1,1,1
0.006009417,0,1,0,0,0,1,1,1
0.006077875,0,0,0,0,0,1,1,1
0.006111083,0,0,1,0,0,1,1,1
0.006269083,0,0,0,0,0,1,1,1
0.006275125,0,0,0,1,0,1,1,1
0.006518667,0,0,0,0,0,1,1,1
0.006524708,0,0,0,0,1,1,1,1
0.006621292,0,0,0,0,0,1,1,1
0.006627333,0,0,0,0,1,1,1,1
0.006641417,0,0,0,0,0,1,1,1
0.006667583,0,1,0,0,0,1,1,1
0.006736042,0,0,0,0,0,1,1,1
0.006769250,0,0,1,0,0,1,1,1
0.006927250,0,0,0,0,0,1,1,1
0.006933292,0,0,0,1,0,1,1,1
0.007176833,0,0,0,0,0,1,1,1
0.007182875,0,0,0,0,1,1,1,1
0.007279458,0,0,0,0,0,1,1,1
0.007285500,0,0,0,0,1,1,1,1
0.007299583,0,0,0,0,0,1,1,1
0.007325750,0,1,0,0,0,1,1,1
0.007394208,0,0,0,0,0,1,1,1
0.007427417,0,0,1,0,0,1,1,1
0.007585417,0,0,0,0,0,1,1,1
0.007591458,0,0,0,1,0,1,1,1
0.007835000,0,0,0,0,0,1,1,1
0.007841042,0,0,0,0,1,1,1,1
0.007937667,0,0,0,0,0,1,1,1
0.007943708,0,0,0,0,1,1,1,1
0.007957792,0,0,0,0,0,1,1,1
0.007983958,0,1,0,0,0,1,1,1
0.008052417,0,0,0,0,0,1,1,1
0.008085625,0,0,1,0,0,1,1,1
0.008243625,0,0,0,0,0,1,1,1
0.008249667,0,0,0,1,0,1,1,1
0.008493208,0,0,0,0,0,1,1,1
0.008499250,0,0,0,0,1,1,1,1
0.008595833,0,0,0,0,0,1,1,1
0.008601875,0,0,0,0,1,1,1,1
0.008615958,0,0,0,0,0,1,1,1
0.008642125,0,1,0,0,0,1,1,1
0.008710583,0,0,0,0,0,1,1,1
0.008743792,0,0,1,0,0,1,1,1
0.008901792,0,0,0,0,0,1,1,1
0.008907833,0,0,0,1,0,1,1,1
0.009151375,0,0,0,0,0,1,1,1
0.009157417,0,0,0,0,1,1,1,1
0.009254042,0,0,0,0,0,1,1,1
0.009260083,0,0,0,0,1,1,1,1
0.009274167,0,0,0,0,0,1,1,1
0.009300333,0,1,0,0,0,1,1,1
0.009368750,0,0,0,0,0,1,1,1
0.009401958,0,0,1,0,0,1,1,1
0.009559958,0,0,0,0,0,1,1,1
0.009566000,0,0,0,1,0,1,1,1
0.009808542,0,0,0,0,0,1,1,1
0.009814583,0,0,0,0,1,1,1,1
0.009911167,0,0,0,0,0,1,1,1
0.009917208,0,0,0,0,1,1,1,1
0.009931292,0,0,0,0,0,1,1,1
0.009957458,0,1,0,0,0,1,1,1
0.010025917,0,0,0,0,0,1,1,1
0.010059125,0,0,1,0,0,1,1,1
0.010217125,0,0,0,0,0,1,1,1
0.010223167,0,0,0,1,0,1,1,1
0.010466708,0,0,0,0,0,1,1,1
0.010472750,0,0,0,0,1,1,1,1
0.010569375,0,0,0,0,0,1,1,1
0.010575417,0,0,0,0,1,1,1,1
0.010589500,0,0,0,0,0,1,1,1
0.010615667,0,1,0,0,0,1,1,1
0.010684083,0,0,0,0,0,1,1,1
0.010717292,0,0,1,0,0,1,1,1
0.010875292,0,0,0,0,0,1,1,1
0.010881333,0,0,0,1,0,1,1,1
0.011124875,0,0,0,0,0,1,1,1
0.011130917,0,0,0,0,1,1,1,1
0.011227542,0,0,0,0,0,1,1,1
0.011233542,0,0,0,0,1,1,1,1
0.011247667,0,0,0,0,0,1,1,1
0.011273833,0,1,0,0,0,1,1,1
0.011342250,0,0,0,0,0,1,1,1
0.011375458,0,0,1,0,0,1,1,1
0.011533500,0,0,0,0,0,1,1,1
0.011539542,0,0,0,1,0,1,1,1
0.011783042,0,0,0,0,0,1,1,1
0.011789083,0,0,0,0,1,1,1,1
0.011885708,0,0,0,0,0,1,1,1
0.011891750,0,0,0,0,1,1,1,1
0.011905833,0,0,0,0,0,1,1,1
0.011932000,0,1,0,0,0,1,1,1
0.012000417,0,0,0,0,0,1,1,1
0.012033625,0,0,1,0,0,1,1,1
0.012191625,0,0,0,0,0,1,1,1
0.012197667,0,0,0,1,0,1,1,1
0.012440208,0,0,0,0,0,1,1,1
0.012446250,0,0,0,0,1,1,1,1
0.012542875,0,0,0,0,0,1,1,1
0.012548917,0,0,0,0,1,1,1,1
0.012563000,0,0,0,0,0,1,1,1
0.012589167,0,1,0,0,0,1,1,1
0.012657583,0,0,0,0,0,1,1,1
0.012690792,0,0,1,0,0,1,1,1
0.012848792,0,0,0,0,0,1,1,1
0.012854833,0,0,0,1,0,1,1,1
0.013098417,0,0,0,0,0,1,1,1
0.013104458,0,0,0,0,1,1,1,1
0.013201042,0,0,0,0,0,1,1,1
0.013207083,0,0,0,0,1,1,1,1
0.013221167,0,0,0,0,0,1,1,1
0.013247333,0,1,0,0,0,1,1,1
0.013315792,0,0,0,0,0,1,1,1
0.013349000,0,0,1,0,0,1,1,1
0.013507000,0,0,0,0,0,1,1,1
0.013513042,0,0,0,1,0,1,1,1
0.013756583,0,0,0,0,0,1,1,1
0.013762625,0,0,0,0,1,1,1,1
0.013859208,0,0,0,0,0,1,1,1
0.013865250,0,0,0,0,1,1,1,1
0.013879333,0,0,0,0,0,1,1,1
0.013905500,0,1,0,0,0,1,1,1
0.013973958,0,0,0,0,0,1,1,1
0.014007167,0,0,1,0,0,1,1,1
0.014165167,0,0,0,0,0,1,1,1
0.014171208,0,0,0,1,0,1,1,1
0.014413750,0,0,0,0,0,1,1,1
0.014419792,0,0,0,0,1,1,1,1
0.014516375,0,0,0,0,0,1,1,1
0.014522417,0,0,0,0,1,1,1,1
0.014536500,0,0,0,0,0,1,1,1
0.014562667,0,1,0,0,0,1,1,1
0.014631125,0,0,0,0,0,1,1,1
0.014664333,0,0,1,0,0,1,1,1
0.014822333,0,0,0,0,0,1,1,1
0.014828375,0,0,0,1,0,1,1,1
0.015070917,0,0,0,0,0,1,1,1
0.015076958,0,0,0,0,1,1,1,1
0.015173542,0,0,0,0,0,1,1,1
0.015179583,0,0,0,0,1,1,1,1
0.015193667,0,0,0,0,0,1,1,1
0.015219833,0,1,0,0,0,1,1,1
0.015288292,0,0,0,0,0,1,1,1
0.015321500,0,0,1,0,0,1,1,1
0.015479500,0,0,0,0,0,1,1,1
0.015485542,0,0,0,1,0,1,1,1
0.015728083,0,0,0,0,0,1,1,1
0.015734083,0,0,0,0,1,1,1,1
0.015830708,0,0,0,0,0,1,1,1
0.015836750,0,0,0,0,1,1,1,1
0.015850833,0,0,0,0,0,1,1,1
0.015877000,0,1,0,0,0,1,1,1
0.015945458,0,0,0,0,0,1,1,1
0.015978667,0,0,1,0,0,1,1,1
0.016136667,0,0,0,0,0,1,1,1
0.016142708,0,0,0,1,0,1,1,1
0.016386250,0,0,0,0,0,1,1,1
0.016392292,0,0,0,0,1,1,1,1
0.016488875,0,0,0,0,0,1,1,1
0.016494917,0,0,0,0,1,1,1,1
0.016509000,0,0,0,0,0,1,1,1
0.016535167,0,1,0,0,0,1,1,1
0.016603625,0,0,0,0,0,1,1,1
0.016636833,0,0,1,0,0,1,1,1
0.016794833,0,0,0,0,0,1,1,1
0.016800875,0,0,0,1,0,1,1,1
0.017044417,0,0,0,0,0,1,1,1
0.017050458,0,0,0,0,1,1,1,1
0.017147083,0,0,0,0,0,1,1,1
0.017153125,0,0,0,0,1,1,1,1
0.017167208,0,0,0,0,0,1,1,1
0.017193375,0,1,0,0,0,1,1,1
0.017261792,0,0,0,0,0,1,1,1
0.017295000,0,0,1,0,0,1,1,1
0.017453000,0,0,0,0,0,1,1,1
0.017459042,0,0,0,1,0,1,1,1
0.017701583,0,0,0,0,0,1,1,1
0.017707625,0,0,0,0,1,1,1,1
0.017804208,0,0,0,0,0,1,1,1
0.017810250,0,0,0,0,1,1,1,1
0.017824375,0,0,0,0,0,1,1,1
0.017850542,0,1,0,0,0,1,1,1
0.017918958,0,0,0,0,0,1,1,1
0.017952167,0,0,1,0,0,1,1,1
0.018110167,0,0,0,0,0,1,1,1
0.018116208,0,0,0,1,0,1,1,1
0.018358750,0,0,0,0,0,1,1,1
0.018364792,0,0,0,0,1,1,1,1
0.018461417,0,0,0,0,0,1,1,1
0.018467458,0,0,0,0,1,1,1,1
0.018481542,0,0,0,0,0,1,1,1
0.018507708,0,1,0,0,0,1,1,1
0.018576125,0,0,0,0,0,1,1,1
0.018609333,0,0,1,0,0,1,1,1
0.018767333,0,0,0,0,0,1,1,1
0.018773375,0,0,0,1,0,1,1,1
0.019015917,0,0,0,0,0,1,1,1
0.019021958,0,0,0,0,1,1,1,1
0.019118542,0,0,0,0,0,1,1,1
0.019124583,0,0,0,0,1,1,1,1
0.019138708,0,0,0,0,0,1,1,1
0.019164833,0,1,0,0,0,1,1,1
0.019233292,0,0,0,0,0,1,1,1
0.019266500,0,0,1,0,0,1,1,1
0.019424500,0,0,0,0,0,1,1,1
0.019430542,0,0,0,1,0,1,1,1
0.019674083,0,0,0,0,0,1,1,1
0.019680125,0,0,0,0,1,1,1,1
0.019776750,0,0,0,0,0,1,1,1
0.019782792,0,0,0,0,1,1,1,1
0.019796875,0,0,0,0,0,1,1,1
0.019823042,0,1,0,0,0,1,1,1
0.019891458,0,0,0,0,0,1,1,1
0.019924667,0,0,1,0,0,1,1,1
0.020082667,0,0,0,0,0,1,1,1
0.020088708,0,0,0,1,0,1,1,1
0.020331250,0,0,0,0,0,1,1,1
0.020337292,0,0,0,0,1,1,1,1
0.020433917,0,0,0,0,0,1,1,1
0.020439958,0,0,0,0,1,1,1,1
0.020454042,0,0,0,0,0,1,1,1
0.020480208,0,1,0,0,0,1,1,1
0.020548625,0,0,0,0,0,1,1,1
0.020581833,0,0,1,0,0,1,1,1
0.020739833,0,0,0,0,0,1,1,1
0.020745875,0,0,0,1,0,1,1,1
0.020988417,0,0,0,0,0,1,1,1
0.020994458,0,0,0,0,1,1,1,1
0.021091083,0,0,0,0,0,1,1,1
0.021097125,0,0,0,0,1,1,1,1
0.021111208,0,0,0,0,0,1,1,1
0.021137375,0,1,0,0,0,1,1,1
0.021205833,0,0,0,0,0,1,1,1
0.021239042,0,0,1,0,0,1,1,1
0.021397042,0,0,0,0,0,1,1,1
0.021403083,0,0,0,1,0,1,1,1
0.021646625,0,0,0,0,0,1,1,1
0.021652667,0,0,0,0,1,1,1,1
0.021749250,0,0,0,0,0,1,1,1
0.021755292,0,0,0,0,1,1,1,1
0.021769375,0,0,0,0,0,1,1,1
0.021795542,0,1,0,0,0,1,1,1
0.021864000,0,0,0,0,0,1,1,1
0.021897208,0,0,1,0,0,1,1,1
0.022055208,0,0,0,0,0,1,1,1
0.022061250,0,0,0,1,0,1,1,1
0.022304792,0,0,0,0,0,1,1,1
0.022310833,0,0,0,0,1,1,1,1
0.022407458,0,0,0,0,0,1,1,1
0.022413500,0,0,0,0,1,1,1,1
0.022427583,0,0,0,0,0,1,1,1
0.022453750,0,1,0,0,0,1,1,1
0.022522167,0,0,0,0,0,1,1,1
0.022555375,0,0,1,0,0,1,1,1
0.022713417,0,0,0,0,0,1,1,1
0.022719417,0,0,0,1,0,1,1,1
0.022962000,0,0,0,0,0,1,1,1
0.022968000,0,0,0,0,1,1,1,1
0.023064625,0,0,0,0,0,1,1,1
0.023070667,0,0,0,0,1,1,1,1
0.023084750,0,0,0,0,0,1,1,1
0.023110917,0,1,0,0,0,1,1,1
0.023179375,0,0,0,0,0,1,1,1
0.023212583,0,0,1,0,0,1,1,1
0.023370583,0,0,0,0,0,1,1,1
0.023376625,0,0,0,1,0,1,1,1
0.023619167,0,0,0,0,0,1,1,1
0.023625208,0,0,0,0,1,1,1,1
0.023721792,0,0,0,0,0,1,1,1
0.023727833,0,0,0,0,1,1,1,1
0.023741917,0,0,0,0,0,1,1,1
0.023768083,0,1,0,0,0,1,1,1
0.023836542,0,0,0,0,0,1,1,1
0.023869750,0,0,1,0,0,1,1,1
0.024027750,0,0,0,0,0,1,1,1
0.024033792,0,0,0,1,0,1,1,1
0.024277333,0,0,0,0,0,1,1,1
0.024283375,0,0,0,0,1,1,1,1
0.024380000,0,0,0,0,0,1,1,1
0.024386042,0,0,0,0,1,1,1,1
0.024400125,0,0,0,0,0,1,1,1
0.024426292,0,1,0,0,0,1,1,1
0.024494708,0,0,0,0,0,1,1,1
0.024527917,0,0,1,0,0,1,1,1
0.024685917,0,0,0,0,0,1,1,1
0.024691958,0,0,0,1,0,1,1,1
0.024935500,0,0,0,0,0,1,1,1
0.024941542,0,0,0,0,1,1,1,1
0.025038125,0,0,0,0,0,1,1,1
0.025044167,0,0,0,0,1,1,1,1
0.025058292,0,0,0,0,0,1,1,1
0.025084417,0,1,0,0,0,1,1,1
0.025152875,0,0,0,0,0,1,1,1
0.025186083,0,0,1,0,0,1,1,1
0.025344083,0,0,0,0,0,1,1,1
0.025350125,0,0,0,1,0,1,1,1
0.025593667,0,0,0,0,0,1,1,1
0.025599708,0,0,0,0,1,1,1,1
0.025696333,0,0,0,0,0,1,1,1
0.025702375,0,0,0,0,1,1,1,1
0.025716458,0,0,0,0,0,1,1,1
0.025742625,0,1,0,0,0,1,1,1
0.025811042,0,0,0,0,0,1,1,1
0.025844292,0,0,1,0,0,1,1,1
0.026002292,0,0,0,0,0,1,1,1
0.026008333,0,0,0,1,0,1,1,1
0.026250875,0,0,0,0,0,1,1,1
0.026256875,0,0,0,0,1,1,1,1
0.026353500,0,0,0,0,0,1,1,1
0.026359542,0,0,0,0,1,1,1,1
0.026373625,0,0,0,0,0,1,1,1
0.026399792,0,1,0,0,0,1,1,1
0.026468208,0,0,0,0,0,1,1,1
0.026501417,0,0,1,0,0,1,1,1
0.026659417,0,0,0,0,0,1,1,1
0.026665458,0,0,0,1,0,1,1,1
0.026909000,0,0,0,0,0,1,1,1
0.026915042,0,0,0,0,1,1,1,1
0.027011667,0,0,0,0,0,1,1,1
0.027017708,0,0,0,0,1,1,1,1
0.027031792,0,0,0,0,0,1,1,1
0.027057958,0,1,0,0,0,1,1,1
0.027126375,0,0,0,0,0,1,1,1
0.027159583,0,0,1,0,0,1,1,1
0.027317625,0,0,0,0,0,1,1,1
0.027323667,0,0,0,1,0,1,1,1
0.027567208,0,0,0,0,0,1,1,1
0.027573250,0,0,0,0,1,1,1,1
0.027669833,0,0,0,0,0,1,1,1
0.027675875,0,0,0,0,1,1,1,1
0.027689958,0,0,0,0,0,1,1,1
0.027716125,0,1,0,0,0,1,1,1
0.027784583,0,0,0,0,0,1,1,1
0.027817792,0,0,1,0,0,1,1,1
0.027975750,0,0,0,0,0,1,1,1
0.027981792,0,0,0,1,0,1,1,1
0.028224333,0,0,0,0,0,1,1,1
0.028230375,0,0,0,0,1,1,1,1
0.028326958,0,0,0,0,0,1,1,1
0.028333000,0,0,0,0,1,1,1,1
0.028347083,0,0,0,0,0,1,1,1
0.028373250,0,1,0,0,0,1,1,1
0.028441708,0,0,0,0,0,1,1,1
0.028474917,0,0,1,0,0,1,1,1
0.028632917,0,0,0,0,0,1,1,1
0.028638958,0,0,0,1,0,1,1,1
0.028881500,0,0,0,0,0,1,1,1
0.028887542,0,0,0,0,1,1,1,1
0.028984125,0,0,0,0,0,1,1,1
0.028990167,0,0,0,0,1,1,1,1
0.029004250,0,0,0,0,0,1,1,1
0.029030417,0,1,0,0,0,1,1,1
0.029098875,0,0,0,0,0,1,1,1
0.029132083,0,0,1,0,0,1,1,1
0.029290083,0,0,0,0,0,1,1,1
0.029296125,0,0,0,1,0,1,1,1
0.029538667,0,0,0,0,0,1,1,1
0.029544708,0,0,0,0,1,1,1,1
0.029641292,0,0,0,0,0,1,1,1
0.029647333,0,0,0,0,1,1,1,1
0.029661417,0,0,0,0,0,1,1,1
0.029687583,0,1,0,0,0,1,1,1
0.029756042,0,0,0,0,0,1,1,1
0.029789250,0,0,1,0,0,1,1,1
0.029947250,0,0,0,0,0,1,1,1
0.029953292,0,0,0,1,0,1,1,1
0.030196833,0,0,0,0,0,1,1,1
0.030202875,0,0,0,0,1,1,1,1
0.030299458,0,0,0,0,0,1,1,1
0.030305500,0,0,0,0,1,1,1,1
0.030319583,0,0,0,0,0,1,1,1
0.030345750,0,1,0,0,0,1,1,1
0.030414208,0,0,0,0,0,1,1,1
0.030447417,0,0,1,0,0,1,1,1
0.030605417,0,0,0,0,0,1,1,1
0.030611458,0,0,0,1,0,1,1,1
0.030855000,0,0,0,0,0,1,1,1
0.030861042,0,0,0,0,1,1,1,1
0.030957667,0,0,0,0,0,1,1,1
0.030963708,0,0,0,0,1,1,1,1
0.030977792,0,0,0,0,0,1,1,1
0.031003958,0,1,0,0,0,1,1,1
0.031072375,0,0,0,0,0,1,1,1
0.031105583,0,0,1,0,0,1,1,1
0.031263625,0,0,0,0,0,1,1,1
0.031269667,0,0,0,1,0,1,1,1
0.031513208,0,0,0,0,0,1,1,1
0.031519250,0,0,0,0,1,1,1,1
0.031615875,0,0,0,0,0,1,1,1
0.031621917,0,0,0,0,1,1,1,1
0.031636000,0,0,0,0,0,1,1,1
0.031662167,0,1,0,0,0,1,1,1
0.031730583,0,0,0,0,0,1,1,1
0.031763792,0,0,1,0,0,1,1,1
0.031921792,0,0,0,0,0,1,1,1
0.031927833,0,0,0,1,0,1,1,1
0.032170375,0,0,0,0,0,1,1,1
0.032176417,0,0,0,0,1,1,1,1
0.032273042,0,0,0,0,0,1,1,1
0.032279083,0,0,0,0,1,1,1,1
0.032293167,0,0,0,0,0,1,1,1
0.032319333,0,1,0,0,0,1,1,1
0.032387750,0,0,0,0,0,1,1,1
0.032420958,0,0,1,0,0,1,1,1
0.032578958,0,0,0,0,0,1,1,1
0.032585000,0,0,0,1,0,1,1,1
0.032828542,0,0,0,0,0,1,1,1
0.032834583,0,0,0,0,1,1,1,1
0.032931208,0,0,0,0,0,1,1,1
0.032937250,0,0,0,0,1,1,1,1
0.032951333,0,0,0,0,0,1,1,1
0.032977500,0,1,0,0,0,1,1,1
0.033045958,0,0,0,0,0,1,1,1
0.033079167,0,0,1,0,0,1,1,1
0.033237167,0,0,0,0,0,1,1,1
0.033243208,0,0,0,1,0,1,1,1
0.033486750,0,0,0,0,0,1,1,1
0.033492792,0,0,0,0,1,1,1,1
0.033589417,0,0,0,0,0,1,1,1
0.033595458,0,0,0,0,1,1,1,1
0.033609542,0,0,0,0,0,1,1,1
0.033635708,0,1,0,0,0,1,1,1
0.033704125,0,0,0,0,0,1,1,1
0.033737333,0,0,1,0,0,1,1,1
0.033895375,0,0,0,0,0,1,1,1
0.033901417,0,0,0,1,0,1,1,1
0.034144958,0,0,0,0,0,1,1,1
0.034151000,0,0,0,0,1,1,1,1
0.034247625,0,0,0,0,0,1,1,1
0.034253625,0,0,0,0,1,1,1,1
0.034267750,0,0,0,0,0,1,1,1
0.034293875,0,1,0,0,0,1,1,1
0.034362333,0,0,0,0,0,1,1,1
0.034395542,0,0,1,0,0,1,1,1
0.034553542,0,0,0,0,0,1,1,1
0.034559583,0,0,0,1,0,1,1,1
0.034802125,0,0,0,0,0,1,1,1
0.034808167,0,0,0,0,1,1,1,1
0.034904750,0,0,0,0,0,1,1,1
0.034910792,0,0,0,0,1,1,1,1
0.034924917,0,0,0,0,0,1,1,1
0.034951042,0,1,0,0,0,1,1,1
0.035019500,0,0,0,0,0,1,1,1
0.035052708,0,0,1,0,0,1,1,1
0.035210708,0,0,0,0,0,1,1,1
0.035216750,0,0,0,1,0,1,1,1
0.035460292,0,0,0,0,0,1,1,1
0.035466333,0,0,0,0,1,1,1,1
0.035562958,0,0,0,0,0,1,1,1
0.035569000,0,0,0,0,1,1,1,1
0.035583083,0,0,0,0,0,1,1,1
0.035609250,0,1,0,0,0,1,1,1
0.035677667,0,0,0,0,0,1,1,1
0.035710875,0,0,1,0,0,1,1,1
0.035868917,0,0,0,0,0,1,1,1
0.035874917,0,0,0,1,0,1,1,1
0.036119500,0,0,0,0,0,1,1,1
0.036125542,0,0,0,0,1,1,1,1
0.036222167,0,0,0,0,0,1,1,1
0.036228167,0,0,0,0,1,1,1,1
0.036242292,0,0,0,0,0,1,1,1
0.036268458,0,1,0,0,0,1,1,1
0.036336875,0,0,0,0,0,1,1,1
0.036370083,0,0,1,0,0,1,1,1
0.036528125,0,0,0,0,0,1,1,1
0.036534167,0,0,0,1,0,1,1,1
0.036778708,0,0,0,0,0,1,1,1
0.036784750,0,0,0,0,1,1,1,1
0.036881375,0,0,0,0,0,1,1,1
0.036887417,0,0,0,0,1,1,1,1
0.036901500,0,0,0,0,0,1,1,1
0.036927667,0,1,0,0,0,1,1,1
0.036996125,0,0,0,0,0,1,1,1
0.037029333,0,0,1,0,0,1,1,1
0.037187333,0,0,0,0,0,1,1,1
0.037193375,0,0,0,1,0,1,1,1
0.037436917,0,0,0,0,0,1,1,1
0.037442958,0,0,0,0,1,1,1,1
0.037539542,0,0,0,0,0,1,1,1
0.037545583,0,0,0,0,1,1,1,1
0.037559667,0,0,0,0,0,1,1,1
0.037585833,0,1,0,0,0,1,1,1
0.037654292,0,0,0,0,0,1,1,1
0.037687500,0,0,1,0,0,1,1,1
0.037845500,0,0,0,0,0,1,1,1
0.037851542,0,0,0,1,0,1,1,1
0.038096083,0,0,0,0,0,1,1,1
0.038102125,0,0,0,0,1,1,1,1
0.038198750,0,0,0,0,0,1,1,1
0.038204792,0,0,0,0,1,1,1,1
0.038218875,0,0,0,0,0,1,1,1
0.038245042,0,1,0,0,0,1,1,1
0.038313458,0,0,0,0,0,1,1,1
0.038346667,0,0,1,0,0,1,1,1
0.038504667,0,0,0,0,0,1,1,1
0.038510708,0,0,0,1,0,1,1,1
0.038755292,0,0,0,0,0,1,1,1
0.038761292,0,0,0,0,1,1,1,1
0.038857917,0,0,0,0,0,1,1,1
0.038863958,0,0,0,0,1,1,1,1
0.038878042,0,0,0,0,0,1,1,1
0.038904208,0,1,0,0,0,1,1,1
0.038972667,0,0,0,0,0,1,1,1
0.039005875,0,0,1,0,0,1,1,1
0.039163875,0,0,0,0,0,1,1,1
0.039169917,0,0,0,1,0,1,1,1
0.039413458,0,0,0,0,0,1,1,1
0.039419500,0,0,0,0,1,1,1,1
0.039516083,0,0,0,0,0,1,1,1
0.039522125,0,0,0,0,1,1,1,1
0.039536208,0,0,0,0,0,1,1,1
0.039562375,0,1,0,0,0,1,1,1
0.039630833,0,0,0,0,0,1,1,1
0.039664042,0,0,1,0,0,1,1,1
0.039822000,0,0,0,0,0,1,1,1
0.039828042,0,0,0,1,0,1,1,1
0.040071583,0,0,0,0,0,1,1,1
0.040077625,0,0,0,0,1,1,1,1
0.040174250,0,0,0,0,0,1,1,1
0.040180292,0,0,0,0,1,1,1,1
0.040194375,0,0,0,0,0,1,1,1
0.040220542,0,1,0,0,0,1,1,1
0.040288958,0,0,0,0,0,1,1,1
0.040322167,0,0,1,0,0,1,1,1
0.040480167,0,0,0,0,0,1,1,1
0.040486208,0,0,0,1,0,1,1,1
0.040730750,0,0,0,0,0,1,1,1
0.040736792,0,0,0,0,1,1,1,1
0.040833417,0,0,0,0,0,1,1,1
0.040839458,0,0,0,0,1,1,1,1
0.040853542,0,0,0,0,0,1,1,1
0.040879708,0,1,0,0,0,1,1,1
0.040948125,0,0,0,0,0,1,1,1
0.040981333,0,0,1,0,0,1,1,1
0.041139375,0,0,0,0,0,1,1,1
0.041145417,0,0,0,1,0,1,1,1
0.041389958,0,0,0,0,0,1,1,1
0.041396000,0,0,0,0,1,1,1,1
0.041492625,0,0,0,0,0,1,1,1
0.041498625,0,0,0,0,1,1,1,1
0.041512750,0,0,0,0,0,1,1,1
0.041538917,0,1,0,0,0,1,1,1
0.041607333,0,0,0,0,0,1,1,1
0.041640542,0,0,1,0,0,1,1,1
0.041798542,0,0,0,0,0,1,1,1
0.041804583,0,0,0,1,0,1,1,1
0.042049167,0,0,0,0,0,1,1,1
0.042055208,0,0,0,0,1,1,1,1
0.042151833,0,0,0,0,0,1,1,1
0.042157833,0,0,0,0,1,1,1,1
0.042171958,0,0,0,0,0,1,1,1
0.042198125,0,1,0,0,0,1,1,1
0.042266542,0,0,0,0,0,1,1,1
0.042299750,0,0,1,0,0,1,1,1
0.042457750,0,0,0,0,0,1,1,1
0.042463792,0,0,0,1,0,1,1,1
0.042707333,0,0,0,0,0,1,1,1
0.042713375,0,0,0,0,1,1,1,1
0.042810000,0,0,0,0,0,1,1,1
0.042816042,0,0,0,0,1,1,1,1
0.042830125,0,0,0,0,0,1,1,1
0.042856292,0,1,0,0,0,1,1,1
0.042924750,0,0,0,0,0,1,1,1
0.042957958,0,0,1,0,0,1,1,1
0.043115958,0,0,0,0,0,1,1,1
0.043122000,0,0,0,1,0,1,1,1
0.043365500,0,0,0,0,0,1,1,1
0.043371542,0,0,0,0,1,1,1,1
0.043468167,0,0,0,0,0,1,1,1
0.043474208,0,0,0,0,1,1,1,1
0.043488292,0,0,0,0,0,1,1,1
0.043514458,0,1,0,0,0,1,1,1
0.043582875,0,0,0,0,0,1,1,1
0.043616083,0,0,1,0,0,1,1,1
0.043774083,0,0,0,0,0,1,1,1
0.043780125,0,0,0,1,0,1,1,1
0.044024667,0,0,0,0,0,1,1,1
0.044030708,0,0,0,0,1,1,1,1
0.044127333,0,0,0,0,0,1,1,1
0.044133375,0,0,0,0,1,1,1,1
0.044147458,0,0,0,0,0,1,1,1
0.044173625,0,1,0,0,0,1,1,1
0.044242083,0,0,0,0,0,1,1,1
0.044275292,0,0,1,0,0,1,1,1
0.044433292,0,0,0,0,0,1,1,1
0.044439333,0,0,0,1,0,1,1,1
0.044683875,0,0,0,0,0,1,1,1
0.044689917,0,0,0,0,1,1,1,1
0.044786500,0,0,0,0,0,1,1,1
0.044792542,0,0,0,0,1,1,1,1
0.044806625,0,0,0,0,0,1,1,1
0.044832792,0,1,0,0,0,1,1,1
0.044901250,0,0,0,0,0,1,1,1
0.044934458,0,0,1,0,0,1,1,1
0.045092458,0,0,0,0,0,1,1,1
0.045098500,0,0,0,1,0,1,1,1
0.045343042,0,0,0,0,0,1,1,1
0.045349083,0,0,0,0,1,1,1,1
0.045445708,0,0,0,0,0,1,1,1
0.045451750,0,0,0,0,1,1,1,1
0.045465833,0,0,0,0,0,1,1,1
0.045492000,0,1,0,0,0,1,1,1
0.045560417,0,0,0,0,0,1,1,1
0.045593625,0,0,1,0,0,1,1,1
0.045751625,0,0,0,0,0,1,1,1
0.045757667,0,0,0,1,0,1,1,1
0.046002250,0,0,0,0,0,1,1,1
0.046008292,0,0,0,0,1,1,1,1
0.046104875,0,0,0,0,0,1,1,1
0.046110917,0,0,0,0,1,1,1,1
0.046125000,0,0,0,0,0,1,1,1
0.046151167,0,1,0,0,0,1,1,1
0.046219625,0,0,0,0,0,1,1,1
0.046252833,0,0,1,0,0,1,1,1
0.046410833,0,0,0,0,0,1,1,1
0.046416875,0,0,0,1,0,1,1,1
0.046661417,0,0,0,0,0,1,1,1
0.046667458,0,0,0,0,1,1,1,1
