Time [s],Channel 0,Channel 1,Channel 2,Channel 3,Channel 4,Channel 5,Channel 6,Channel 7
-5.587550000,0,0,0,1,0,1,1,1
-5.561652000,0,0,0,0,0,1,1,1
-5.561646000,0,0,0,0,1,1,1,1
-5.561548000,0,0,0,0,0,1,1,1
-5.561542000,0,0,0,0,1,1,1,1
-5.561522000,0,0,0,0,0,1,1,1
-5.561492000,0,1,0,0,0,1,1,1
-5.561390000,0,0,0,0,0,1,1,1
-5.561352000,0,0,1,0,0,1,1,1
-5.560808000,0,0,0,0,0,1,1,1
-5.560802000,0,0,0,1,0,1,1,1
-5.552280000,0,0,0,0,0,1,1,1
-5.552274000,0,0,0,0,1,1,1,1
-5.552176000,0,0,0,0,0,1,1,1
-5.552170000,0,0,0,0,1,1,1,1
-5.552150000,0,0,0,0,0,1,1,1
-5.552120000,0,1,0,0,0,1,1,1
-5.552018000,0,0,0,0,0,1,1,1
-5.551980000,0,0,1,0,0,1,1,1
-5.551434000,0,0,0,0,0,1,1,1
-5.551428000,0,0,0,1,0,1,1,1
-5.551380000,1,0,0,1,0,1,1,1
-5.551376000,0,0,0,1,0,1,1,1
-5.551344000,0,0,0,0,0,1,1,1
-5.551338000,0,0,0,0,1,1,1,1
-5.551242000,0,0,0,0,0,1,1,1
-5.551236000,0,0,0,0,1,1,1,1
-5.551216000,0,0,0,0,0,1,1,1
-5.551186000,0,1,0,0,0,1,1,1
-5.551084000,0,0,0,0,0,1,1,1
-5.551046000,0,0,1,0,0,1,1,1
-5.550500000,0,0,0,0,0,1,1,1
-5.550494000,0,0,0,1,0,1,1,1
-5.550338000,0,0,0,0,0,1,1,1
-5.550332000,0,0,0,0,1,1,1,1
-5.550236000,0,0,0,0,0,1,1,1
-5.550230000,0,0,0,0,1,1,1,1
-5.550210000,0,0,0,0,0,1,1,1
-5.550180000,0,1,0,0,0,1,1,1
-5.550078000,0,0,0,0,0,1,1,1
-5.550040000,0,0,1,0,0,1,1,1
-5.549494000,0,0,0,0,0,1,1,1
-5.549488000,0,0,0,1,0,1,1,1
-5.544768000,0,0,0,0,0,1,1,1
-5.544762000,0,0,0,0,1,1,1,1
-5.544666000,0,0,0,0,0,1,1,1
-5.544660000,0,0,0,0,1,1,1,1
-5.544638000,0,0,0,0,0,1,1,1
-5.544608000,0,1,0,0,0,1,1,1
-5.544506000,0,0,0,0,0,1,1,1
-5.544468000,0,0,1,0,0,1,1,1
-5.543924000,0,0,0,0,0,1,1,1
-5.543918000,0,0,0,1,0,1,1,1
-5.537246000,0,0,0,0,0,1,1,1
-5.537240000,0,0,0,0,1,1,1,1
-5.537142000,0,0,0,0,0,1,1,1
-5.537136000,0,0,0,0,1,1,1,1
-5.537116000,0,0,0,0,0,1,1,1
-5.537086000,0,1,0,0,0,1,1,1
-5.536984000,0,0,0,0,0,1,1,1
-5.536946000,0,0,1,0,0,1,1,1
-5.536400000,0,0,0,0,0,1,1,1
-5.536394000,0,0,0,1,0,1,1,1
-5.527388000,0,0,0,0,0,1,1,1
-5.527382000,0,0,0,0,1,1,1,1
-5.527284000,0,0,0,0,0,1,1,1
-5.527278000,0,0,0,0,1,1,1,1
-5.527258000,0,0,0,0,0,1,1,1
-5.527228000,0,1,0,0,0,1,1,1
-5.527126000,0,0,0,0,0,1,1,1
-5.527088000,0,0,1,0,0,1,1,1
-5.526544000,0,0,0,0,0,1,1,1
-5.526538000,0,0,0,1,0,1,1,1
-5.521200000,0,0,0,0,0,1,1,1
-5.521194000,0,0,0,0,1,1,1,1
-5.521098000,0,0,0,0,0,1,1,1
-5.521092000,0,0,0,0,1,1,1,1
-5.521070000,0,0,0,0,0,1,1,1
-5.521042000,0,1,0,0,0,1,1,1
-5.520938000,0,0,0,0,0,1,1,1
-5.520900000,0,0,1,0,0,1,1,1
-5.520354000,0,0,0,0,0,1,1,1
-5.520348000,0,0,0,1,0,1,1,1
-5.491380000,0,0,0,0,0,1,1,1
-5.491374000,0,0,0,0,1,1,1,1
-5.491278000,0,0,0,0,0,1,1,1
-5.491272000,0,0,0,0,1,1,1,1
-5.491250000,0,0,0,0,0,1,1,1
-5.491222000,0,1,0,0,0,1,1,1
-5.491118000,0,0,0,0,0,1,1,1
-5.491080000,0,0,1,0,0,1,1,1
-5.490536000,0,0,0,0,0,1,1,1
-5.490530000,0,0,0,1,0,1,1,1
-5.481946000,0,0,0,0,0,1,1,1
-5.481940000,0,0,0,0,1,1,1,1
-5.481842000,0,0,0,0,0,1,1,1
-5.481836000,0,0,0,0,1,1,1,1
-5.481816000,0,0,0,0,0,1,1,1
-5.481786000,0,1,0,0,0,1,1,1
-5.481684000,0,0,0,0,0,1,1,1
-5.481646000,0,0,1,0,0,1,1,1
-5.481100000,0,0,0,0,0,1,1,1
-5.481094000,0,0,0,1,0,1,1,1
-5.481046000,1,0,0,1,0,1,1,1
-5.481040000,0,0,0,1,0,1,1,1
-5.481010000,0,0,0,0,0,1,1,1
-5.481004000,0,0,0,0,1,1,1,1
-5.480908000,0,0,0,0,0,1,1,1
-5.480902000,0,0,0,0,1,1,1,1
-5.480880000,0,0,0,0,0,1,1,1
-5.480852000,0,1,0,0,0,1,1,1
-5.480748000,0,0,0,0,0,1,1,1
-5.480710000,0,0,1,0,0,1,1,1
-5.480166000,0,0,0,0,0,1,1,1
-5.480160000,0,0,0,1,0,1,1,1
-5.480004000,0,0,0,0,0,1,1,1
-5.479998000,0,0,0,0,1,1,1,1
-5.479902000,0,0,0,0,0,1,1,1
-5.479896000,0,0,0,0,1,1,1,1
-5.479874000,0,0,0,0,0,1,1,1
-5.479846000,0,1,0,0,0,1,1,1
-5.479742000,0,0,0,0,0,1,1,1
-5.479704000,0,0,1,0,0,1,1,1
-5.479160000,0,0,0,0,0,1,1,1
-5.479154000,0,0,0,1,0,1,1,1
-5.474432000,0,0,0,0,0,1,1,1
-5.474426000,0,0,0,0,1,1,1,1
-5.474328000,0,0,0,0,0,1,1,1
-5.474322000,0,0,0,0,1,1,1,1
-5.474302000,0,0,0,0,0,1,1,1
-5.474272000,0,1,0,0,0,1,1,1
-5.474170000,0,0,0,0,0,1,1,1
-5.474132000,0,0,1,0,0,1,1,1
-5.473588000,0,0,0,0,0,1,1,1
-5.473582000,0,0,0,1,0,1,1,1
-5.466908000,0,0,0,0,0,1,1,1
-5.466902000,0,0,0,0,1,1,1,1
-5.466806000,0,0,0,0,0,1,1,1
-5.466800000,0,0,0,0,1,1,1,1
-5.466778000,0,0,0,0,0,1,1,1
-5.466750000,0,1,0,0,0,1,1,1
-5.466646000,0,0,0,0,0,1,1,1
-5.466608000,0,0,1,0,0,1,1,1
-5.466064000,0,0,0,0,0,1,1,1
-5.466058000,0,0,0,1,0,1,1,1
-5.457038000,0,0,0,0,0,1,1,1
-5.457032000,0,0,0,0,1,1,1,1
-5.456936000,0,0,0,0,0,1,1,1
-5.456930000,0,0,0,0,1,1,1,1
-5.456910000,0,0,0,0,0,1,1,1
-5.456880000,0,1,0,0,0,1,1,1
-5.456778000,0,0,0,0,0,1,1,1
-5.456740000,0,0,1,0,0,1,1,1
-5.456194000,0,0,0,0,0,1,1,1
-5.456188000,0,0,0,1,0,1,1,1
-5.450848000,0,0,0,0,0,1,1,1
-5.450842000,0,0,0,0,1,1,1,1
-5.450746000,0,0,0,0,0,1,1,1
-5.450740000,0,0,0,0,1,1,1,1
-5.450718000,0,0,0,0,0,1,1,1
-5.450690000,0,1,0,0,0,1,1,1
-5.450586000,0,0,0,0,0,1,1,1
-5.450548000,0,0,1,0,0,1,1,1
-5.450004000,0,0,0,0,0,1,1,1
-5.449998000,0,0,0,1,0,1,1,1
-5.422804000,0,0,0,0,0,1,1,1
-5.422798000,0,0,0,0,1,1,1,1
-5.422702000,0,0,0,0,0,1,1,1
-5.422694000,0,0,0,0,1,1,1,1
-5.422674000,0,0,0,0,0,1,1,1
-5.422644000,0,1,0,0,0,1,1,1
-5.422542000,0,0,0,0,0,1,1,1
-5.422504000,0,0,1,0,0,1,1,1
-5.421960000,0,0,0,0,0,1,1,1
-5.421954000,0,0,0,1,0,1,1,1
-5.413296000,0,0,0,0,0,1,1,1
-5.413290000,0,0,0,0,1,1,1,1
-5.413194000,0,0,0,0,0,1,1,1
-5.413188000,0,0,0,0,1,1,1,1
-5.413166000,0,0,0,0,0,1,1,1
-5.413138000,0,1,0,0,0,1,1,1
-5.413034000,0,0,0,0,0,1,1,1
-5.412996000,0,0,1,0,0,1,1,1
-5.412450000,0,0,0,0,0,1,1,1
-5.412444000,0,0,0,1,0,1,1,1
-5.412396000,1,0,0,1,0,1,1,1
-5.412392000,0,0,0,1,0,1,1,1
-5.412362000,0,0,0,0,0,1,1,1
-5.412356000,0,0,0,0,1,1,1,1
-5.412258000,0,0,0,0,0,1,1,1
-5.412252000,0,0,0,0,1,1,1,1
-5.412232000,0,0,0,0,0,1,1,1
-5.412202000,0,1,0,0,0,1,1,1
-5.412100000,0,0,0,0,0,1,1,1
-5.412062000,0,0,1,0,0,1,1,1
-5.411518000,0,0,0,0,0,1,1,1
-5.411512000,0,0,0,1,0,1,1,1
-5.411356000,0,0,0,0,0,1,1,1
-5.411350000,0,0,0,0,1,1,1,1
-5.411252000,0,0,0,0,0,1,1,1
-5.411246000,0,0,0,0,1,1,1,1
-5.411226000,0,0,0,0,0,1,1,1
-5.411196000,0,1,0,0,0,1,1,1
-5.411094000,0,0,0,0,0,1,1,1
-5.411056000,0,0,1,0,0,1,1,1
-5.410510000,0,0,0,0,0,1,1,1
-5.410504000,0,0,0,1,0,1,1,1
-5.405788000,0,0,0,0,0,1,1,1
-5.405782000,0,0,0,0,1,1,1,1
-5.405686000,0,0,0,0,0,1,1,1
-5.405680000,0,0,0,0,1,1,1,1
-5.405658000,0,0,0,0,0,1,1,1
-5.405630000,0,1,0,0,0,1,1,1
-5.405526000,0,0,0,0,0,1,1,1
-5.405488000,0,0,1,0,0,1,1,1
-5.404944000,0,0,0,0,0,1,1,1
-5.404938000,0,0,0,1,0,1,1,1
-5.398266000,0,0,0,0,0,1,1,1
-5.398260000,0,0,0,0,1,1,1,1
-5.398164000,0,0,0,0,0,1,1,1
-5.398158000,0,0,0,0,1,1,1,1
-5.398136000,0,0,0,0,0,1,1,1
-5.398106000,0,1,0,0,0,1,1,1
-5.398004000,0,0,0,0,0,1,1,1
-5.397966000,0,0,1,0,0,1,1,1
-5.397420000,0,0,0,0,0,1,1,1
-5.397414000,0,0,0,1,0,1,1,1
-5.388400000,0,0,0,0,0,1,1,1
-5.388394000,0,0,0,0,1,1,1,1
-5.388296000,0,0,0,0,0,1,1,1
-5.388290000,0,0,0,0,1,1,1,1
-5.388270000,0,0,0,0,0,1,1,1
-5.388240000,0,1,0,0,0,1,1,1
-5.388138000,0,0,0,0,0,1,1,1
-5.388100000,0,0,1,0,0,1,1,1
-5.387556000,0,0,0,0,0,1,1,1
-5.387550000,0,0,0,1,0,1,1,1
-5.382208000,0,0,0,0,0,1,1,1
-5.382202000,0,0,0,0,1,1,1,1
-5.382106000,0,0,0,0,0,1,1,1
-5.382100000,0,0,0,0,1,1,1,1
-5.382078000,0,0,0,0,0,1,1,1
-5.382050000,0,1,0,0,0,1,1,1
-5.381948000,0,0,0,0,0,1,1,1
-5.381908000,0,0,1,0,0,1,1,1
-5.381364000,0,0,0,0,0,1,1,1
-5.381358000,0,0,0,1,0,1,1,1
-5.354158000,0,0,0,0,0,1,1,1
-5.354152000,0,0,0,0,1,1,1,1
-5.354056000,0,0,0,0,0,1,1,1
-5.354050000,0,0,0,0,1,1,1,1
-5.354028000,0,0,0,0,0,1,1,1
-5.353998000,0,1,0,0,0,1,1,1
-5.353896000,0,0,0,0,0,1,1,1
-5.353858000,0,0,1,0,0,1,1,1
-5.353314000,0,0,0,0,0,1,1,1
-5.353308000,0,0,0,1,0,1,1,1
-5.344786000,0,0,0,0,0,1,1,1
-5.344780000,0,0,0,0,1,1,1,1
-5.344684000,0,0,0,0,0,1,1,1
-5.344678000,0,0,0,0,1,1,1,1
-5.344656000,0,0,0,0,0,1,1,1
-5.344628000,0,1,0,0,0,1,1,1
-5.344524000,0,0,0,0,0,1,1,1
-5.344486000,0,0,1,0,0,1,1,1
-5.343940000,0,0,0,0,0,1,1,1
-5.343934000,0,0,0,1,0,1,1,1
-5.343886000,1,0,0,1,0,1,1,1
-5.343882000,0,0,0,1,0,1,1,1
-5.343852000,0,0,0,0,0,1,1,1
-5.343846000,0,0,0,0,1,1,1,1
-5.343748000,0,0,0,0,0,1,1,1
-5.343742000,0,0,0,0,1,1,1,1
-5.343722000,0,0,0,0,0,1,1,1
-5.343692000,0,1,0,0,0,1,1,1
-5.343590000,0,0,0,0,0,1,1,1
-5.343552000,0,0,1,0,0,1,1,1
-5.343008000,0,0,0,0,0,1,1,1
-5.343002000,0,0,0,1,0,1,1,1
-5.342846000,0,0,0,0,0,1,1,1
-5.342840000,0,0,0,0,1,1,1,1
-5.342742000,0,0,0,0,0,1,1,1
-5.342736000,0,0,0,0,1,1,1,1
-5.342716000,0,0,0,0,0,1,1,1
-5.342686000,0,1,0,0,0,1,1,1
-5.342584000,0,0,0,0,0,1,1,1
-5.342546000,0,0,1,0,0,1,1,1
-5.342000000,0,0,0,0,0,1,1,1
-5.341994000,0,0,0,1,0,1,1,1
-5.337272000,0,0,0,0,0,1,1,1
-5.337266000,0,0,0,0,1,1,1,1
-5.337170000,0,0,0,0,0,1,1,1
-5.337164000,0,0,0,0,1,1,1,1
-5.337142000,0,0,0,0,0,1,1,1
-5.337114000,0,1,0,0,0,1,1,1
-5.337010000,0,0,0,0,0,1,1,1
-5.336972000,0,0,1,0,0,1,1,1
-5.336428000,0,0,0,0,0,1,1,1
-5.336422000,0,0,0,1,0,1,1,1
-5.329750000,0,0,0,0,0,1,1,1
-5.329744000,0,0,0,0,1,1,1,1
-5.329646000,0,0,0,0,0,1,1,1
-5.329640000,0,0,0,0,1,1,1,1
-5.329620000,0,0,0,0,0,1,1,1
-5.329590000,0,1,0,0,0,1,1,1
-5.329488000,0,0,0,0,0,1,1,1
-5.329450000,0,0,1,0,0,1,1,1
-5.328904000,0,0,0,0,0,1,1,1
-5.328898000,0,0,0,1,0,1,1,1
-5.319892000,0,0,0,0,0,1,1,1
-5.319886000,0,0,0,0,1,1,1,1
-5.319788000,0,0,0,0,0,1,1,1
-5.319782000,0,0,0,0,1,1,1,1
-5.319762000,0,0,0,0,0,1,1,1
-5.319732000,0,1,0,0,0,1,1,1
-5.319630000,0,0,0,0,0,1,1,1
-5.319592000,0,0,1,0,0,1,1,1
-5.319048000,0,0,0,0,0,1,1,1
-5.319042000,0,0,0,1,0,1,1,1
-5.313704000,0,0,0,0,0,1,1,1
-5.313698000,0,0,0,0,1,1,1,1
-5.313602000,0,0,0,0,0,1,1,1
-5.313596000,0,0,0,0,1,1,1,1
-5.313574000,0,0,0,0,0,1,1,1
-5.313544000,0,1,0,0,0,1,1,1
-5.313442000,0,0,0,0,0,1,1,1
-5.313404000,0,0,1,0,0,1,1,1
-5.312858000,0,0,0,0,0,1,1,1
-5.312852000,0,0,0,1,0,1,1,1
-5.283882000,0,0,0,0,0,1,1,1
-5.283876000,0,0,0,0,1,1,1,1
-5.283780000,0,0,0,0,0,1,1,1
-5.283774000,0,0,0,0,1,1,1,1
-5.283752000,0,0,0,0,0,1,1,1
-5.283724000,0,1,0,0,0,1,1,1
-5.283622000,0,0,0,0,0,1,1,1
-5.283582000,0,0,1,0,0,1,1,1
-5.283038000,0,0,0,0,0,1,1,1
-5.283032000,0,0,0,1,0,1,1,1
-5.274448000,0,0,0,0,0,1,1,1
-5.274442000,0,0,0,0,1,1,1,1
-5.274344000,0,0,0,0,0,1,1,1
-5.274338000,0,0,0,0,1,1,1,1
-5.274318000,0,0,0,0,0,1,1,1
-5.274288000,0,1,0,0,0,1,1,1
-5.274186000,0,0,0,0,0,1,1,1
-5.274148000,0,0,1,0,0,1,1,1
-5.273602000,0,0,0,0,0,1,1,1
-5.273596000,0,0,0,1,0,1,1,1
-5.273548000,1,0,0,1,0,1,1,1
-5.273542000,0,0,0,1,0,1,1,1
-5.273512000,0,0,0,0,0,1,1,1
-5.273506000,0,0,0,0,1,1,1,1
-5.273410000,0,0,0,0,0,1,1,1
-5.273404000,0,0,0,0,1,1,1,1
-5.273382000,0,0,0,0,0,1,1,1
-5.273354000,0,1,0,0,0,1,1,1
-5.273252000,0,0,0,0,0,1,1,1
-5.273212000,0,0,1,0,0,1,1,1
-5.272668000,0,0,0,0,0,1,1,1
-5.272662000,0,0,0,1,0,1,1,1
-5.272506000,0,0,0,0,0,1,1,1
-5.272500000,0,0,0,0,1,1,1,1
-5.272404000,0,0,0,0,0,1,1,1
-5.272398000,0,0,0,0,1,1,1,1
-5.272376000,0,0,0,0,0,1,1,1
-5.272348000,0,1,0,0,0,1,1,1
-5.272244000,0,0,0,0,0,1,1,1
-5.272206000,0,0,1,0,0,1,1,1
-5.271662000,0,0,0,0,0,1,1,1
-5.271656000,0,0,0,1,0,1,1,1
-5.266932000,0,0,0,0,0,1,1,1
-5.266926000,0,0,0,0,1,1,1,1
-5.266828000,0,0,0,0,0,1,1,1
-5.266822000,0,0,0,0,1,1,1,1
-5.266802000,0,0,0,0,0,1,1,1
-5.266772000,0,1,0,0,0,1,1,1
-5.266670000,0,0,0,0,0,1,1,1
-5.266632000,0,0,1,0,0,1,1,1
-5.266088000,0,0,0,0,0,1,1,1
-5.266082000,0,0,0,1,0,1,1,1
-5.259408000,0,0,0,0,0,1,1,1
-5.259402000,0,0,0,0,1,1,1,1
-5.259306000,0,0,0,0,0,1,1,1
-5.259300000,0,0,0,0,1,1,1,1
-5.259278000,0,0,0,0,0,1,1,1
-5.259250000,0,1,0,0,0,1,1,1
-5.259146000,0,0,0,0,0,1,1,1
-5.259108000,0,0,1,0,0,1,1,1
-5.258564000,0,0,0,0,0,1,1,1
-5.258558000,0,0,0,1,0,1,1,1
-5.249538000,0,0,0,0,0,1,1,1
-5.249532000,0,0,0,0,1,1,1,1
-5.249436000,0,0,0,0,0,1,1,1
-5.249430000,0,0,0,0,1,1,1,1
-5.249408000,0,0,0,0,0,1,1,1
-5.249380000,0,1,0,0,0,1,1,1
-5.249276000,0,0,0,0,0,1,1,1
-5.249238000,0,0,1,0,0,1,1,1
-5.248694000,0,0,0,0,0,1,1,1
-5.248688000,0,0,0,1,0,1,1,1
-5.243348000,0,0,0,0,0,1,1,1
-5.243342000,0,0,0,0,1,1,1,1
-5.243246000,0,0,0,0,0,1,1,1
-5.243238000,0,0,0,0,1,1,1,1
-5.243218000,0,0,0,0,0,1,1,1
-5.243188000,0,1,0,0,0,1,1,1
-5.243086000,0,0,0,0,0,1,1,1
-5.243048000,0,0,1,0,0,1,1,1
-5.242502000,0,0,0,0,0,1,1,1
-5.242496000,0,0,0,1,0,1,1,1
-5.215302000,0,0,0,0,0,1,1,1
-5.215296000,0,0,0,0,1,1,1,1
-5.215200000,0,0,0,0,0,1,1,1
-5.215194000,0,0,0,0,1,1,1,1
-5.215172000,0,0,0,0,0,1,1,1
-5.215142000,0,1,0,0,0,1,1,1
-5.215040000,0,0,0,0,0,1,1,1
-5.215002000,0,0,1,0,0,1,1,1
-5.214458000,0,0,0,0,0,1,1,1
-5.214452000,0,0,0,1,0,1,1,1
-5.205794000,0,0,0,0,0,1,1,1
-5.205788000,0,0,0,0,1,1,1,1
-5.205692000,0,0,0,0,0,1,1,1
-5.205686000,0,0,0,0,1,1,1,1
-5.205664000,0,0,0,0,0,1,1,1
-5.205636000,0,1,0,0,0,1,1,1
-5.205532000,0,0,0,0,0,1,1,1
-5.205494000,0,0,1,0,0,1,1,1
-5.204950000,0,0,0,0,0,1,1,1
-5.204944000,0,0,0,1,0,1,1,1
-5.204894000,1,0,0,1,0,1,1,1
-5.204890000,0,0,0,1,0,1,1,1
-5.204860000,0,0,0,0,0,1,1,1
-5.204854000,0,0,0,0,1,1,1,1
-5.204756000,0,0,0,0,0,1,1,1
-5.204750000,0,0,0,0,1,1,1,1
-5.204730000,0,0,0,0,0,1,1,1
-5.204700000,0,1,0,0,0,1,1,1
-5.204598000,0,0,0,0,0,1,1,1
-5.204560000,0,0,1,0,0,1,1,1
-5.204016000,0,0,0,0,0,1,1,1
-5.204010000,0,0,0,1,0,1,1,1
-5.203854000,0,0,0,0,0,1,1,1
-5.203848000,0,0,0,0,1,1,1,1
-5.203750000,0,0,0,0,0,1,1,1
-5.203744000,0,0,0,0,1,1,1,1
-5.203724000,0,0,0,0,0,1,1,1
-5.203694000,0,1,0,0,0,1,1,1
-5.203592000,0,0,0,0,0,1,1,1
-5.203554000,0,0,1,0,0,1,1,1
-5.203008000,0,0,0,0,0,1,1,1
-5.203002000,0,0,0,1,0,1,1,1
-5.198296000,0,0,0,0,0,1,1,1
-5.198290000,0,0,0,0,1,1,1,1
-5.198194000,0,0,0,0,0,1,1,1
-5.198188000,0,0,0,0,1,1,1,1
-5.198166000,0,0,0,0,0,1,1,1
-5.198138000,0,1,0,0,0,1,1,1
-5.198034000,0,0,0,0,0,1,1,1
-5.197996000,0,0,1,0,0,1,1,1
-5.197452000,0,0,0,0,0,1,1,1
-5.197446000,0,0,0,1,0,1,1,1
-5.190774000,0,0,0,0,0,1,1,1
-5.190768000,0,0,0,0,1,1,1,1
-5.190672000,0,0,0,0,0,1,1,1
-5.190666000,0,0,0,0,1,1,1,1
-5.190644000,0,0,0,0,0,1,1,1
-5.190614000,0,1,0,0,0,1,1,1
-5.190512000,0,0,0,0,0,1,1,1
-5.190474000,0,0,1,0,0,1,1,1
-5.189928000,0,0,0,0,0,1,1,1
-5.189922000,0,0,0,1,0,1,1,1
-5.180908000,0,0,0,0,0,1,1,1
-5.180902000,0,0,0,0,1,1,1,1
-5.180804000,0,0,0,0,0,1,1,1
-5.180798000,0,0,0,0,1,1,1,1
-5.180778000,0,0,0,0,0,1,1,1
-5.180748000,0,1,0,0,0,1,1,1
-5.180646000,0,0,0,0,0,1,1,1
-5.180608000,0,0,1,0,0,1,1,1
-5.180062000,0,0,0,0,0,1,1,1
-5.180056000,0,0,0,1,0,1,1,1
-5.174716000,0,0,0,0,0,1,1,1
-5.174710000,0,0,0,0,1,1,1,1
-5.174614000,0,0,0,0,0,1,1,1
-5.174608000,0,0,0,0,1,1,1,1
-5.174586000,0,0,0,0,0,1,1,1
-5.174558000,0,1,0,0,0,1,1,1
-5.174454000,0,0,0,0,0,1,1,1
-5.174416000,0,0,1,0,0,1,1,1
-5.173872000,0,0,0,0,0,1,1,1
-5.173866000,0,0,0,1,0,1,1,1
-5.146666000,0,0,0,0,0,1,1,1
-5.146660000,0,0,0,0,1,1,1,1
-5.146562000,0,0,0,0,0,1,1,1
-5.146556000,0,0,0,0,1,1,1,1
-5.146536000,0,0,0,0,0,1,1,1
-5.146506000,0,1,0,0,0,1,1,1
-5.146404000,0,0,0,0,0,1,1,1
-5.146366000,0,0,1,0,0,1,1,1
-5.145822000,0,0,0,0,0,1,1,1
-5.145816000,0,0,0,1,0,1,1,1
-5.137294000,0,0,0,0,0,1,1,1
-5.137288000,0,0,0,0,1,1,1,1
-5.137190000,0,0,0,0,0,1,1,1
-5.137184000,0,0,0,0,1,1,1,1
-5.137164000,0,0,0,0,0,1,1,1
-5.137134000,0,1,0,0,0,1,1,1
-5.137032000,0,0,0,0,0,1,1,1
-5.136994000,0,0,1,0,0,1,1,1
-5.136448000,0,0,0,0,0,1,1,1
-5.136442000,0,0,0,1,0,1,1,1
-5.136394000,1,0,0,1,0,1,1,1
-5.136390000,0,0,0,1,0,1,1,1
-5.136358000,0,0,0,0,0,1,1,1
-5.136352000,0,0,0,0,1,1,1,1
-5.136256000,0,0,0,0,0,1,1,1
-5.136250000,0,0,0,0,1,1,1,1
-5.136230000,0,0,0,0,0,1,1,1
-5.136200000,0,1,0,0,0,1,1,1
-5.136098000,0,0,0,0,0,1,1,1
-5.136060000,0,0,1,0,0,1,1,1
-5.135514000,0,0,0,0,0,1,1,1
-5.135508000,0,0,0,1,0,1,1,1
-5.135352000,0,0,0,0,0,1,1,1
-5.135346000,0,0,0,0,1,1,1,1
-5.135250000,0,0,0,0,0,1,1,1
-5.135244000,0,0,0,0,1,1,1,1
-5.135224000,0,0,0,0,0,1,1,1
-5.135194000,0,1,0,0,0,1,1,1
-5.135092000,0,0,0,0,0,1,1,1
-5.135054000,0,0,1,0,0,1,1,1
-5.134508000,0,0,0,0,0,1,1,1
-5.134502000,0,0,0,1,0,1,1,1
-5.129790000,0,0,0,0,0,1,1,1
-5.129784000,0,0,0,0,1,1,1,1
-5.129688000,0,0,0,0,0,1,1,1
-5.129682000,0,0,0,0,1,1,1,1
-5.129660000,0,0,0,0,0,1,1,1
-5.129632000,0,1,0,0,0,1,1,1
-5.129528000,0,0,0,0,0,1,1,1
-5.129490000,0,0,1,0,0,1,1,1
-5.128946000,0,0,0,0,0,1,1,1
-5.128940000,0,0,0,1,0,1,1,1
-5.122268000,0,0,0,0,0,1,1,1
-5.122262000,0,0,0,0,1,1,1,1
-5.122164000,0,0,0,0,0,1,1,1
-5.122158000,0,0,0,0,1,1,1,1
-5.122138000,0,0,0,0,0,1,1,1
-5.122108000,0,1,0,0,0,1,1,1
-5.122006000,0,0,0,0,0,1,1,1
-5.121968000,0,0,1,0,0,1,1,1
-5.121422000,0,0,0,0,0,1,1,1
-5.121416000,0,0,0,1,0,1,1,1
-5.112410000,0,0,0,0,0,1,1,1
-5.112404000,0,0,0,0,1,1,1,1
-5.112306000,0,0,0,0,0,1,1,1
-5.112300000,0,0,0,0,1,1,1,1
-5.112280000,0,0,0,0,0,1,1,1
-5.112250000,0,1,0,0,0,1,1,1
-5.112148000,0,0,0,0,0,1,1,1
-5.112110000,0,0,1,0,0,1,1,1
-5.111566000,0,0,0,0,0,1,1,1
-5.111560000,0,0,0,1,0,1,1,1
-5.106222000,0,0,0,0,0,1,1,1
-5.106216000,0,0,0,0,1,1,1,1
-5.106120000,0,0,0,0,0,1,1,1
-5.106114000,0,0,0,0,1,1,1,1
-5.106092000,0,0,0,0,0,1,1,1
-5.106064000,0,1,0,0,0,1,1,1
-5.105960000,0,0,0,0,0,1,1,1
-5.105922000,0,0,1,0,0,1,1,1
-5.105376000,0,0,0,0,0,1,1,1
-5.105370000,0,0,0,1,0,1,1,1
-5.076402000,0,0,0,0,0,1,1,1
-5.076396000,0,0,0,0,1,1,1,1
-5.076300000,0,0,0,0,0,1,1,1
-5.076294000,0,0,0,0,1,1,1,1
-5.076272000,0,0,0,0,0,1,1,1
-5.076244000,0,1,0,0,0,1,1,1
-5.076140000,0,0,0,0,0,1,1,1
-5.076102000,0,0,1,0,0,1,1,1
-5.075558000,0,0,0,0,0,1,1,1
-5.075552000,0,0,0,1,0,1,1,1
-5.066966000,0,0,0,0,0,1,1,1
-5.066960000,0,0,0,0,1,1,1,1
-5.066864000,0,0,0,0,0,1,1,1
-5.066858000,0,0,0,0,1,1,1,1
-5.066838000,0,0,0,0,0,1,1,1
-5.066808000,0,1,0,0,0,1,1,1
-5.066706000,0,0,0,0,0,1,1,1
-5.066668000,0,0,1,0,0,1,1,1
-5.066122000,0,0,0,0,0,1,1,1
-5.066116000,0,0,0,1,0,1,1,1
-5.066068000,1,0,0,1,0,1,1,1
-5.066062000,0,0,0,1,0,1,1,1
-5.066032000,0,0,0,0,0,1,1,1
-5.066026000,0,0,0,0,1,1,1,1
-5.065930000,0,0,0,0,0,1,1,1
-5.065924000,0,0,0,0,1,1,1,1
-5.065902000,0,0,0,0,0,1,1,1
-5.065874000,0,1,0,0,0,1,1,1
-5.065770000,0,0,0,0,0,1,1,1
-5.065732000,0,0,1,0,0,1,1,1
-5.065188000,0,0,0,0,0,1,1,1
-5.065182000,0,0,0,1,0,1,1,1
-5.065026000,0,0,0,0,0,1,1,1
-5.065020000,0,0,0,0,1,1,1,1
-5.064924000,0,0,0,0,0,1,1,1
-5.064918000,0,0,0,0,1,1,1,1
-5.064896000,0,0,0,0,0,1,1,1
-5.064868000,0,1,0,0,0,1,1,1
-5.064764000,0,0,0,0,0,1,1,1
-5.064726000,0,0,1,0,0,1,1,1
-5.064180000,0,0,0,0,0,1,1,1
-5.064174000,0,0,0,1,0,1,1,1
-5.059462000,0,0,0,0,0,1,1,1
-5.059456000,0,0,0,0,1,1,1,1
-5.059358000,0,0,0,0,0,1,1,1
-5.059352000,0,0,0,0,1,1,1,1
-5.059332000,0,0,0,0,0,1,1,1
-5.059302000,0,1,0,0,0,1,1,1
-5.059200000,0,0,0,0,0,1,1,1
-5.059162000,0,0,1,0,0,1,1,1
-5.058618000,0,0,0,0,0,1,1,1
-5.058612000,0,0,0,1,0,1,1,1
-5.051938000,0,0,0,0,0,1,1,1
-5.051932000,0,0,0,0,1,1,1,1
-5.051836000,0,0,0,0,0,1,1,1
-5.051830000,0,0,0,0,1,1,1,1
-5.051808000,0,0,0,0,0,1,1,1
-5.051780000,0,1,0,0,0,1,1,1
-5.051676000,0,0,0,0,0,1,1,1
-5.051638000,0,0,1,0,0,1,1,1
-5.051094000,0,0,0,0,0,1,1,1
-5.051088000,0,0,0,1,0,1,1,1
-5.042068000,0,0,0,0,0,1,1,1
-5.042062000,0,0,0,0,1,1,1,1
-5.041966000,0,0,0,0,0,1,1,1
-5.041960000,0,0,0,0,1,1,1,1
-5.041938000,0,0,0,0,0,1,1,1
-5.041910000,0,1,0,0,0,1,1,1
-5.041806000,0,0,0,0,0,1,1,1
-5.041768000,0,0,1,0,0,1,1,1
-5.041224000,0,0,0,0,0,1,1,1
-5.041218000,0,0,0,1,0,1,1,1
-5.035878000,0,0,0,0,0,1,1,1
-5.035872000,0,0,0,0,1,1,1,1
-5.035776000,0,0,0,0,0,1,1,1
-5.035770000,0,0,0,0,1,1,1,1
-5.035748000,0,0,0,0,0,1,1,1
-5.035718000,0,1,0,0,0,1,1,1
-5.035616000,0,0,0,0,0,1,1,1
-5.035578000,0,0,1,0,0,1,1,1
-5.035032000,0,0,0,0,0,1,1,1
-5.035026000,0,0,0,1,0,1,1,1
-5.007832000,0,0,0,0,0,1,1,1
-5.007826000,0,0,0,0,1,1,1,1
-5.007730000,0,0,0,0,0,1,1,1
-5.007724000,0,0,0,0,1,1,1,1
-5.007702000,0,0,0,0,0,1,1,1
-5.007674000,0,1,0,0,0,1,1,1
-5.007570000,0,0,0,0,0,1,1,1
-5.007532000,0,0,1,0,0,1,1,1
-5.006988000,0,0,0,0,0,1,1,1
-5.006982000,0,0,0,1,0,1,1,1
-4.998324000,0,0,0,0,0,1,1,1
-4.998318000,0,0,0,0,1,1,1,1
-4.998222000,0,0,0,0,0,1,1,1
-4.998216000,0,0,0,0,1,1,1,1
-4.998194000,0,0,0,0,0,1,1,1
-4.998166000,0,1,0,0,0,1,1,1
-4.998062000,0,0,0,0,0,1,1,1
-4.998024000,0,0,1,0,0,1,1,1
-4.997480000,0,0,0,0,0,1,1,1
-4.997474000,0,0,0,1,0,1,1,1
-4.997424000,1,0,0,1,0,1,1,1
-4.997420000,0,0,0,1,0,1,1,1
-4.997390000,0,0,0,0,0,1,1,1
-4.997384000,0,0,0,0,1,1,1,1
-4.997288000,0,0,0,0,0,1,1,1
-4.997280000,0,0,0,0,1,1,1,1
-4.997260000,0,0,0,0,0,1,1,1
-4.997230000,0,1,0,0,0,1,1,1
-4.997128000,0,0,0,0,0,1,1,1
