Time [s],Channel 0,Channel 1,Channel 2,Channel 3,Channel 4,Channel 5,Channel 6,Channel 7
0.021333333,0,0,1,0,0,1,1,1
0.021572250,0,0,0,0,0,1,1,1
0.021578292,0,0,0,1,0,1,1,1
0.021675917,0,0,0,0,0,1,1,1
0.021681958,0,0,0,0,1,1,1,1
0.021779583,0,0,0,0,0,1,1,1
0.021784625,0,0,0,0,1,1,1,1
0.021805750,0,0,0,0,0,1,1,1
0.021834917,0,1,0,0,0,1,1,1
0.021936542,0,0,0,0,0,1,1,1
0.021974792,0,0,1,0,0,1,1,1
0.022554458,0,0,0,0,0,1,1,1
0.022560500,0,0,0,1,0,1,1,1
0.022656125,0,0,0,0,0,1,1,1
0.022662125,0,0,0,0,1,1,1,1
0.022759750,0,0,0,0,0,1,1,1
0.022764792,0,0,0,0,1,1,1,1
0.022785917,0,0,0,0,0,1,1,1
0.022815125,0,1,0,0,0,1,1,1
0.022916750,0,0,0,0,0,1,1,1
0.022955000,0,0,1,0,0,1,1,1
0.023534667,0,0,0,0,0,1,1,1
0.023540708,0,0,0,1,0,1,1,1
0.023607125,0,0,0,0,0,1,1,1
0.023613167,0,0,0,0,1,1,1,1
0.023710792,0,0,0,0,0,1,1,1
0.023715792,0,0,0,0,1,1,1,1
0.023736958,0,0,0,0,0,1,1,1
0.023766125,0,1,0,0,0,1,1,1
0.023867750,0,0,0,0,0,1,1,1
0.023906000,0,0,1,0,0,1,1,1
0.024485625,0,0,0,0,0,1,1,1
0.024491667,0,0,0,1,0,1,1,1
0.024610417,0,0,0,0,0,1,1,1
0.024616458,0,0,0,0,1,1,1,1
0.024714083,0,0,0,0,0,1,1,1
0.024719083,0,0,0,0,1,1,1,1
0.024740208,0,0,0,0,0,1,1,1
0.024769417,0,1,0,0,0,1,1,1
0.024871042,0,0,0,0,0,1,1,1
0.024909292,0,0,1,0,0,1,1,1
0.025488958,0,0,0,0,0,1,1,1
0.025495000,0,0,0,1,0,1,1,1
0.025614750,0,0,0,0,0,1,1,1
0.025620792,0,0,0,0,1,1,1,1
0.025718375,0,0,0,0,0,1,1,1
0.025723417,0,0,0,0,1,1,1,1
0.025744542,0,0,0,0,0,1,1,1
0.025773750,0,1,0,0,0,1,1,1
0.025875375,0,0,0,0,0,1,1,1
0.025913625,0,0,1,0,0,1,1,1
0.026493250,0,0,0,0,0,1,1,1
0.026499292,0,0,0,1,0,1,1,1
0.026641167,0,0,0,0,0,1,1,1
0.026647208,0,0,0,0,1,1,1,1
0.026744833,0,0,0,0,0,1,1,1
0.026749875,0,0,0,0,1,1,1,1
0.026771000,0,0,0,0,0,1,1,1
0.026800167,0,1,0,0,0,1,1,1
0.026901833,0,0,0,0,0,1,1,1
0.026940083,0,0,1,0,0,1,1,1
0.027519708,0,0,0,0,0,1,1,1
0.027525750,0,0,0,1,0,1,1,1
0.027610292,0,0,0,0,0,1,1,1
0.027616333,0,0,0,0,1,1,1,1
0.027713917,0,0,0,0,0,1,1,1
0.027718958,0,0,0,0,1,1,1,1
0.027740083,0,0,0,0,0,1,1,1
0.027769292,0,1,0,0,0,1,1,1
0.027870917,0,0,0,0,0,1,1,1
0.027909167,0,0,1,0,0,1,1,1
0.028488792,0,0,0,0,0,1,1,1
0.028494833,0,0,0,1,0,1,1,1
0.028593458,0,0,0,0,0,1,1,1
0.028599500,0,0,0,0,1,1,1,1
0.028697083,0,0,0,0,0,1,1,1
0.028702125,0,0,0,0,1,1,1,1
0.028723250,0,0,0,0,0,1,1,1
0.028752417,0,1,0,0,0,1,1,1
0.028854042,0,0,0,0,0,1,1,1
0.028892292,0,0,1,0,0,1,1,1
0.029471917,0,0,0,0,0,1,1,1
0.029477958,0,0,0,1,0,1,1,1
0.029572542,0,0,0,0,0,1,1,1
0.029578583,0,0,0,0,1,1,1,1
0.029676208,0,0,0,0,0,1,1,1
0.029681208,0,0,0,0,1,1,1,1
0.029702375,0,0,0,0,0,1,1,1
0.029731542,0,1,0,0,0,1,1,1
0.029833167,0,0,0,0,0,1,1,1
0.029871417,0,0,1,0,0,1,1,1
0.030451042,0,0,0,0,0,1,1,1
0.030457083,0,0,0,1,0,1,1,1
0.030524500,0,0,0,0,0,1,1,1
0.030530542,0,0,0,0,1,1,1,1
0.030628167,0,0,0,0,0,1,1,1
0.030633208,0,0,0,0,1,1,1,1
0.030654333,0,0,0,0,0,1,1,1
0.030683500,0,1,0,0,0,1,1,1
0.030785125,0,0,0,0,0,1,1,1
0.030823375,0,0,1,0,0,1,1,1
0.031403000,0,0,0,0,0,1,1,1
0.031409042,0,0,0,1,0,1,1,1
0.031526792,0,0,0,0,0,1,1,1
0.031532833,0,0,0,0,1,1,1,1
0.031630417,0,0,0,0,0,1,1,1
0.031635458,0,0,0,0,1,1,1,1
0.031656583,0,0,0,0,0,1,1,1
0.031685792,0,1,0,0,0,1,1,1
0.031787417,0,0,0,0,0,1,1,1
0.031825667,0,0,1,0,0,1,1,1
0.032405292,0,0,0,0,0,1,1,1
0.032411333,0,0,0,1,0,1,1,1
0.032532083,0,0,0,0,0,1,1,1
0.032538125,0,0,0,0,1,1,1,1
0.032635750,0,0,0,0,0,1,1,1
0.032640792,0,0,0,0,1,1,1,1
0.032661917,0,0,0,0,0,1,1,1
0.032691083,0,1,0,0,0,1,1,1
0.032792750,0,0,0,0,0,1,1,1
0.032831000,0,0,1,0,0,1,1,1
0.033410625,0,0,0,0,0,1,1,1
0.033416667,0,0,0,1,0,1,1,1
0.033556542,0,0,0,0,0,1,1,1
0.033562583,0,0,0,0,1,1,1,1
0.033660208,0,0,0,0,0,1,1,1
0.033665250,0,0,0,0,1,1,1,1
0.033686375,0,0,0,0,0,1,1,1
0.033715583,0,1,0,0,0,1,1,1
0.033817208,0,0,0,0,0,1,1,1
0.033855458,0,0,1,0,0,1,1,1
0.034435125,0,0,0,0,0,1,1,1
0.034441167,0,0,0,1,0,1,1,1
0.034542833,0,0,0,0,0,1,1,1
0.034548833,0,0,0,0,1,1,1,1
0.034646458,0,0,0,0,0,1,1,1
0.034651500,0,0,0,0,1,1,1,1
0.034672625,0,0,0,0,0,1,1,1
0.034701833,0,1,0,0,0,1,1,1
0.034803458,0,0,0,0,0,1,1,1
0.034841708,0,0,1,0,0,1,1,1
0.035421333,0,0,0,0,0,1,1,1
0.035427375,0,0,0,1,0,1,1,1
0.035525000,0,0,0,0,0,1,1,1
0.035531042,0,0,0,0,1,1,1,1
0.035628625,0,0,0,0,0,1,1,1
0.035633667,0,0,0,0,1,1,1,1
0.035654833,0,0,0,0,0,1,1,1
0.035684000,0,1,0,0,0,1,1,1
0.035785625,0,0,0,0,0,1,1,1
0.035823875,0,0,1,0,0,1,1,1
0.036403542,0,0,0,0,0,1,1,1
0.036409583,0,0,0,1,0,1,1,1
0.036505167,0,0,0,0,0,1,1,1
0.036511208,0,0,0,0,1,1,1,1
0.036608833,0,0,0,0,0,1,1,1
0.036613875,0,0,0,0,1,1,1,1
0.036635000,0,0,0,0,0,1,1,1
0.036664167,0,1,0,0,0,1,1,1
0.036765833,0,0,0,0,0,1,1,1
0.036804083,0,0,1,0,0,1,1,1
0.037383708,0,0,0,0,0,1,1,1
0.037389750,0,0,0,1,0,1,1,1
0.037456167,0,0,0,0,0,1,1,1
0.037462208,0,0,0,0,1,1,1,1
0.037559833,0,0,0,0,0,1,1,1
0.037564833,0,0,0,0,1,1,1,1
0.037586000,0,0,0,0,0,1,1,1
0.037615167,0,1,0,0,0,1,1,1
0.037716792,0,0,0,0,0,1,1,1
0.037755042,0,0,1,0,0,1,1,1
0.038334708,0,0,0,0,0,1,1,1
0.038340750,0,0,0,1,0,1,1,1
0.038459500,0,0,0,0,0,1,1,1
0.038465542,0,0,0,0,1,1,1,1
0.038563125,0,0,0,0,0,1,1,1
0.038568167,0,0,0,0,1,1,1,1
0.038589292,0,0,0,0,0,1,1,1
0.038618500,0,1,0,0,0,1,1,1
0.038720125,0,0,0,0,0,1,1,1
0.038758375,0,0,1,0,0,1,1,1
0.039338042,0,0,0,0,0,1,1,1
0.039344083,0,0,0,1,0,1,1,1
0.039463833,0,0,0,0,0,1,1,1
0.039469875,0,0,0,0,1,1,1,1
0.039567458,0,0,0,0,0,1,1,1
0.039572500,0,0,0,0,1,1,1,1
0.039593625,0,0,0,0,0,1,1,1
0.039622792,0,1,0,0,0,1,1,1
0.039724458,0,0,0,0,0,1,1,1
0.039762708,0,0,1,0,0,1,1,1
0.040342333,0,0,0,0,0,1,1,1
0.040348375,0,0,0,1,0,1,1,1
0.040490292,0,0,0,0,0,1,1,1
0.040496333,0,0,0,0,1,1,1,1
0.040593958,0,0,0,0,0,1,1,1
0.040598958,0,0,0,0,1,1,1,1
0.040620125,0,0,0,0,0,1,1,1
0.040649292,0,1,0,0,0,1,1,1
0.040750917,0,0,0,0,0,1,1,1
0.040789167,0,0,1,0,0,1,1,1
0.041368833,0,0,0,0,0,1,1,1
0.041374875,0,0,0,1,0,1,1,1
0.041459417,0,0,0,0,0,1,1,1
0.041465458,0,0,0,0,1,1,1,1
0.041563042,0,0,0,0,0,1,1,1
0.041568083,0,0,0,0,1,1,1,1
0.041589208,0,0,0,0,0,1,1,1
0.041618417,0,1,0,0,0,1,1,1
0.041720042,0,0,0,0,0,1,1,1
0.041758292,0,0,1,0,0,1,1,1
0.042337958,0,0,0,0,0,1,1,1
0.042344000,0,0,0,1,0,1,1,1
0.042442625,0,0,0,0,0,1,1,1
0.042448667,0,0,0,0,1,1,1,1
0.042546250,0,0,0,0,0,1,1,1
0.042551292,0,0,0,0,1,1,1,1
0.042572417,0,0,0,0,0,1,1,1
0.042601625,0,1,0,0,0,1,1,1
0.042703250,0,0,0,0,0,1,1,1
0.042741500,0,0,1,0,0,1,1,1
0.043321167,0,0,0,0,0,1,1,1
0.043327208,0,0,0,1,0,1,1,1
0.043421792,0,0,0,0,0,1,1,1
0.043427833,0,0,0,0,1,1,1,1
0.043525458,0,0,0,0,0,1,1,1
0.043530500,0,0,0,0,1,1,1,1
0.043551625,0,0,0,0,0,1,1,1
0.043580792,0,1,0,0,0,1,1,1
0.043682458,0,0,0,0,0,1,1,1
0.043720667,0,0,1,0,0,1,1,1
0.044300333,0,0,0,0,0,1,1,1
0.044306375,0,0,0,1,0,1,1,1
0.044373792,0,0,0,0,0,1,1,1
0.044379833,0,0,0,0,1,1,1,1
0.044477458,0,0,0,0,0,1,1,1
0.044482500,0,0,0,0,1,1,1,1
0.044503625,0,0,0,0,0,1,1,1
0.044532833,0,1,0,0,0,1,1,1
0.044634458,0,0,0,0,0,1,1,1
0.044672708,0,0,1,0,0,1,1,1
0.045252375,0,0,0,0,0,1,1,1
0.045258417,0,0,0,1,0,1,1,1
0.045376167,0,0,0,0,0,1,1,1
0.045382208,0,0,0,0,1,1,1,1
0.045479792,0,0,0,0,0,1,1,1
0.045484833,0,0,0,0,1,1,1,1
0.045505958,0,0,0,0,0,1,1,1
0.045535167,0,1,0,0,0,1,1,1
0.045636792,0,0,0,0,0,1,1,1
0.045675042,0,0,1,0,0,1,1,1
0.046254708,0,0,0,0,0,1,1,1
0.046260750,0,0,0,1,0,1,1,1
0.046381500,0,0,0,0,0,1,1,1
0.046387542,0,0,0,0,1,1,1,1
0.046485167,0,0,0,0,0,1,1,1
0.046490208,0,0,0,0,1,1,1,1
0.046511333,0,0,0,0,0,1,1,1
0.046540500,0,1,0,0,0,1,1,1
0.046642167,0,0,0,0,0,1,1,1
0.046680417,0,0,1,0,0,1,1,1
0.047260042,0,0,0,0,0,1,1,1
0.047266083,0,0,0,1,0,1,1,1
0.047405958,0,0,0,0,0,1,1,1
0.047412000,0,0,0,0,1,1,1,1
0.047509625,0,0,0,0,0,1,1,1
0.047514625,0,0,0,0,1,1,1,1
0.047535792,0,0,0,0,0,1,1,1
0.047564958,0,1,0,0,0,1,1,1
0.047666625,0,0,0,0,0,1,1,1
0.047704833,0,0,1,0,0,1,1,1
0.048284500,0,0,0,0,0,1,1,1
0.048290542,0,0,0,1,0,1,1,1
0.048377083,0,0,0,0,0,1,1,1
0.048383125,0,0,0,0,1,1,1,1
0.048480750,0,0,0,0,0,1,1,1
0.048485792,0,0,0,0,1,1,1,1
0.048506917,0,0,0,0,0,1,1,1
0.048536083,0,1,0,0,0,1,1,1
0.048637708,0,0,0,0,0,1,1,1
0.048675958,0,0,1,0,0,1,1,1
0.049255583,0,0,0,0,0,1,1,1
0.049261625,0,0,0,1,0,1,1,1
0.049359250,0,0,0,0,0,1,1,1
0.049365292,0,0,0,0,1,1,1,1
0.049462875,0,0,0,0,0,1,1,1
0.049467917,0,0,0,0,1,1,1,1
0.049489042,0,0,0,0,0,1,1,1
0.049518250,0,1,0,0,0,1,1,1
0.049619875,0,0,0,0,0,1,1,1
0.049658125,0,0,1,0,0,1,1,1
0.050237750,0,0,0,0,0,1,1,1
0.050243792,0,0,0,1,0,1,1,1
0.050339375,0,0,0,0,0,1,1,1
0.050345417,0,0,0,0,1,1,1,1
0.050443042,0,0,0,0,0,1,1,1
0.050448042,0,0,0,0,1,1,1,1
0.050469208,0,0,0,0,0,1,1,1
0.050498375,0,1,0,0,0,1,1,1
0.050600000,0,0,0,0,0,1,1,1
0.050638250,0,0,1,0,0,1,1,1
0.051217875,0,0,0,0,0,1,1,1
0.051223917,0,0,0,1,0,1,1,1
0.051290333,0,0,0,0,0,1,1,1
0.051296375,0,0,0,0,1,1,1,1
0.051393958,0,0,0,0,0,1,1,1
0.051399000,0,0,0,0,1,1,1,1
0.051420125,0,0,0,0,0,1,1,1
0.051449292,0,1,0,0,0,1,1,1
0.051550958,0,0,0,0,0,1,1,1
0.051589208,0,0,1,0,0,1,1,1
0.052168833,0,0,0,0,0,1,1,1
0.052174875,0,0,0,1,0,1,1,1
0.052293625,0,0,0,0,0,1,1,1
0.052299667,0,0,0,0,1,1,1,1
0.052397250,0,0,0,0,0,1,1,1
0.052402292,0,0,0,0,1,1,1,1
0.052423417,0,0,0,0,0,1,1,1
0.052452625,0,1,0,0,0,1,1,1
0.052554250,0,0,0,0,0,1,1,1
0.052592500,0,0,1,0,0,1,1,1
0.053172167,0,0,0,0,0,1,1,1
0.053178167,0,0,0,1,0,1,1,1
0.053297958,0,0,0,0,0,1,1,1
0.053304000,0,0,0,0,1,1,1,1
0.053401583,0,0,0,0,0,1,1,1
0.053406625,0,0,0,0,1,1,1,1
0.053427750,0,0,0,0,0,1,1,1
0.053456958,0,1,0,0,0,1,1,1
0.053558583,0,0,0,0,0,1,1,1
0.053596833,0,0,1,0,0,1,1,1
0.054176500,0,0,0,0,0,1,1,1
0.054182542,0,0,0,1,0,1,1,1
0.054324417,0,0,0,0,0,1,1,1
0.054330458,0,0,0,0,1,1,1,1
0.054428083,0,0,0,0,0,1,1,1
0.054433083,0,0,0,0,1,1,1,1
0.054454250,0,0,0,0,0,1,1,1
0.054483417,0,1,0,0,0,1,1,1
0.054585042,0,0,0,0,0,1,1,1
0.054623292,0,0,1,0,0,1,1,1
0.055202958,0,0,0,0,0,1,1,1
0.055209000,0,0,0,1,0,1,1,1
0.055293542,0,0,0,0,0,1,1,1
0.055299583,0,0,0,0,1,1,1,1
0.055397208,0,0,0,0,0,1,1,1
0.055402208,0,0,0,0,1,1,1,1
0.055423333,0,0,0,0,0,1,1,1
0.055452542,0,1,0,0,0,1,1,1
0.055554167,0,0,0,0,0,1,1,1
0.055592417,0,0,1,0,0,1,1,1
0.056172083,0,0,0,0,0,1,1,1
0.056178125,0,0,0,1,0,1,1,1
0.056276750,0,0,0,0,0,1,1,1
0.056282792,0,0,0,0,1,1,1,1
0.056380375,0,0,0,0,0,1,1,1
0.056385417,0,0,0,0,1,1,1,1
0.056406542,0,0,0,0,0,1,1,1
0.056435708,0,1,0,0,0,1,1,1
0.056537375,0,0,0,0,0,1,1,1
0.056575583,0,0,1,0,0,1,1,1
0.057155250,0,0,0,0,0,1,1,1
0.057161292,0,0,0,1,0,1,1,1
0.057255875,0,0,0,0,0,1,1,1
0.057261875,0,0,0,0,1,1,1,1
0.057359500,0,0,0,0,0,1,1,1
0.057364542,0,0,0,0,1,1,1,1
0.057385667,0,0,0,0,0,1,1,1
0.057414875,0,1,0,0,0,1,1,1
0.057516500,0,0,0,0,0,1,1,1
0.057554750,0,0,1,0,0,1,1,1
0.058134375,0,0,0,0,0,1,1,1
0.058140417,0,0,0,1,0,1,1,1
0.058207833,0,0,0,0,0,1,1,1
0.058213875,0,0,0,0,1,1,1,1
0.058311500,0,0,0,0,0,1,1,1
0.058316500,0,0,0,0,1,1,1,1
0.058337625,0,0,0,0,0,1,1,1
0.058366833,0,1,0,0,0,1,1,1
0.058468458,0,0,0,0,0,1,1,1
0.058506708,0,0,1,0,0,1,1,1
0.059086333,0,0,0,0,0,1,1,1
0.059092375,0,0,0,1,0,1,1,1
0.059210125,0,0,0,0,0,1,1,1
0.059216167,0,0,0,0,1,1,1,1
0.059313792,0,0,0,0,0,1,1,1
0.059318792,0,0,0,0,1,1,1,1
0.059339958,0,0,0,0,0,1,1,1
0.059369125,0,1,0,0,0,1,1,1
0.059470750,0,0,0,0,0,1,1,1
0.059509000,0,0,1,0,0,1,1,1
0.060088667,0,0,0,0,0,1,1,1
0.060094708,0,0,0,1,0,1,1,1
0.060215458,0,0,0,0,0,1,1,1
0.060221500,0,0,0,0,1,1,1,1
0.060319083,0,0,0,0,0,1,1,1
0.060324125,0,0,0,0,1,1,1,1
0.060345250,0,0,0,0,0,1,1,1
0.060374458,0,1,0,0,0,1,1,1
0.060476083,0,0,0,0,0,1,1,1
0.060514333,0,0,1,0,0,1,1,1
0.061093958,0,0,0,0,0,1,1,1
0.061100000,0,0,0,1,0,1,1,1
0.061239875,0,0,0,0,0,1,1,1
0.061245917,0,0,0,0,1,1,1,1
0.061343542,0,0,0,0,0,1,1,1
0.061348583,0,0,0,0,1,1,1,1
0.061369708,0,0,0,0,0,1,1,1
0.061398875,0,1,0,0,0,1,1,1
0.061500542,0,0,0,0,0,1,1,1
0.061538792,0,0,1,0,0,1,1,1
0.062118458,0,0,0,0,0,1,1,1
0.062124500,0,0,0,1,0,1,1,1
0.062211042,0,0,0,0,0,1,1,1
0.062217083,0,0,0,0,1,1,1,1
0.062314708,0,0,0,0,0,1,1,1
0.062319708,0,0,0,0,1,1,1,1
0.062340875,0,0,0,0,0,1,1,1
0.062370042,0,1,0,0,0,1,1,1
0.062471708,0,0,0,0,0,1,1,1
0.062509917,0,0,1,0,0,1,1,1
0.063089583,0,0,0,0,0,1,1,1
0.063095625,0,0,0,1,0,1,1,1
0.063193250,0,0,0,0,0,1,1,1
0.063199250,0,0,0,0,1,1,1,1
0.063296875,0,0,0,0,0,1,1,1
0.063301917,0,0,0,0,1,1,1,1
0.063323042,0,0,0,0,0,1,1,1
0.063352208,0,1,0,0,0,1,1,1
0.063453875,0,0,0,0,0,1,1,1
0.063492125,0,0,1,0,0,1,1,1
0.064071750,0,0,0,0,0,1,1,1
0.064077792,0,0,0,1,0,1,1,1
0.064173417,0,0,0,0,0,1,1,1
0.064179458,0,0,0,0,1,1,1,1
0.064277083,0,0,0,0,0,1,1,1
0.064282083,0,0,0,0,1,1,1,1
0.064303250,0,0,0,0,0,1,1,1
0.064332417,0,1,0,0,0,1,1,1
0.064434083,0,0,0,0,0,1,1,1
0.064472292,0,0,1,0,0,1,1,1
0.065051958,0,0,0,0,0,1,1,1
0.065057958,0,0,0,1,0,1,1,1
0.065124417,0,0,0,0,0,1,1,1
0.065130417,0,0,0,0,1,1,1,1
0.065228042,0,0,0,0,0,1,1,1
0.065233083,0,0,0,0,1,1,1,1
0.065254208,0,0,0,0,0,1,1,1
0.065283417,0,1,0,0,0,1,1,1
0.065385042,0,0,0,0,0,1,1,1
0.065423292,0,0,1,0,0,1,1,1
0.066002958,0,0,0,0,0,1,1,1
0.066009000,0,0,0,1,0,1,1,1
0.066127750,0,0,0,0,0,1,1,1
0.066133792,0,0,0,0,1,1,1,1
0.066231375,0,0,0,0,0,1,1,1
0.066236417,0,0,0,0,1,1,1,1
0.066257542,0,0,0,0,0,1,1,1
0.066286750,0,1,0,0,0,1,1,1
0.066388375,0,0,0,0,0,1,1,1
0.066426625,0,0,1,0,0,1,1,1
0.067006250,0,0,0,0,0,1,1,1
0.067012292,0,0,0,1,0,1,1,1
0.067132042,0,0,0,0,0,1,1,1
0.067138083,0,0,0,0,1,1,1,1
0.067235708,0,0,0,0,0,1,1,1
0.067240750,0,0,0,0,1,1,1,1
0.067261875,0,0,0,0,0,1,1,1
0.067291083,0,1,0,0,0,1,1,1
0.067392708,0,0,0,0,0,1,1,1
0.067430958,0,0,1,0,0,1,1,1
0.068010625,0,0,0,0,0,1,1,1
0.068016625,0,0,0,1,0,1,1,1
0.068158542,0,0,0,0,0,1,1,1
0.068164583,0,0,0,0,1,1,1,1
0.068262208,0,0,0,0,0,1,1,1
0.068267250,0,0,0,0,1,1,1,1
0.068288375,0,0,0,0,0,1,1,1
0.068317542,0,1,0,0,0,1,1,1
0.068419208,0,0,0,0,0,1,1,1
0.068457417,0,0,1,0,0,1,1,1
0.069037083,0,0,0,0,0,1,1,1
0.069043125,0,0,0,1,0,1,1,1
0.069127667,0,0,0,0,0,1,1,1
0.069133708,0,0,0,0,1,1,1,1
0.069231292,0,0,0,0,0,1,1,1
0.069236333,0,0,0,0,1,1,1,1
0.069257458,0,0,0,0,0,1,1,1
0.069286667,0,1,0,0,0,1,1,1
0.069388292,0,0,0,0,0,1,1,1
0.069426542,0,0,1,0,0,1,1,1
0.070006167,0,0,0,0,0,1,1,1
0.070012208,0,0,0,1,0,1,1,1
0.070110833,0,0,0,0,0,1,1,1
0.070116875,0,0,0,0,1,1,1,1
0.070214500,0,0,0,0,0,1,1,1
0.070219500,0,0,0,0,1,1,1,1
0.070240667,0,0,0,0,0,1,1,1
0.070269833,0,1,0,0,0,1,1,1
0.070371458,0,0,0,0,0,1,1,1
0.070409708,0,0,1,0,0,1,1,1
0.070989375,0,0,0,0,0,1,1,1
0.070995417,0,0,0,1,0,1,1,1
0.071090000,0,0,0,0,0,1,1,1
0.071096042,0,0,0,0,1,1,1,1
0.071193625,0,0,0,0,0,1,1,1
0.071198667,0,0,0,0,1,1,1,1
0.071219792,0,0,0,0,0,1,1,1
0.071249000,0,1,0,0,0,1,1,1
0.071350625,0,0,0,0,0,1,1,1
0.071388875,0,0,1,0,0,1,1,1
0.071968500,0,0,0,0,0,1,1,1
0.071974542,0,0,0,1,0,1,1,1
0.072041958,0,0,0,0,0,1,1,1
0.072048000,0,0,0,0,1,1,1,1
0.072145625,0,0,0,0,0,1,1,1
0.072150625,0,0,0,0,1,1,1,1
0.072171792,0,0,0,0,0,1,1,1
0.072200958,0,1,0,0,0,1,1,1
0.072302583,0,0,0,0,0,1,1,1
0.072340833,0,0,1,0,0,1,1,1
0.072920458,0,0,0,0,0,1,1,1
0.072926500,0,0,0,1,0,1,1,1
0.073044250,0,0,0,0,0,1,1,1
0.073050292,0,0,0,0,1,1,1,1
0.073147917,0,0,0,0,0,1,1,1
0.073152917,0,0,0,0,1,1,1,1
0.073174083,0,0,0,0,0,1,1,1
0.073203250,0,1,0,0,0,1,1,1
0.073304875,0,0,0,0,0,1,1,1
0.073343125,0,0,1,0,0,1,1,1
0.073922750,0,0,0,0,0,1,1,1
0.073928792,0,0,0,1,0,1,1,1
0.074049542,0,0,0,0,0,1,1,1
0.074055583,0,0,0,0,1,1,1,1
0.074153208,0,0,0,0,0,1,1,1
0.074158208,0,0,0,0,1,1,1,1
0.074179375,0,0,0,0,0,1,1,1
0.074208542,0,1,0,0,0,1,1,1
0.074310208,0,0,0,0,0,1,1,1
0.074348417,0,0,1,0,0,1,1,1
0.074928125,0,0,0,0,0,1,1,1
0.074934125,0,0,0,1,0,1,1,1
0.075074042,0,0,0,0,0,1,1,1
0.075080083,0,0,0,0,1,1,1,1
0.075177667,0,0,0,0,0,1,1,1
0.075182708,0,0,0,0,1,1,1,1
0.075203833,0,0,0,0,0,1,1,1
0.075233042,0,1,0,0,0,1,1,1
0.075334667,0,0,0,0,0,1,1,1
0.075372917,0,0,1,0,0,1,1,1
0.075952583,0,0,0,0,0,1,1,1
0.075958625,0,0,0,1,0,1,1,1
0.076045167,0,0,0,0,0,1,1,1
0.076051208,0,0,0,0,1,1,1,1
0.076148792,0,0,0,0,0,1,1,1
0.076153833,0,0,0,0,1,1,1,1
0.076174958,0,0,0,0,0,1,1,1
0.076204167,0,1,0,0,0,1,1,1
0.076305792,0,0,0,0,0,1,1,1
0.076344042,0,0,1,0,0,1,1,1
0.076923667,0,0,0,0,0,1,1,1
0.076929708,0,0,0,1,0,1,1,1
0.077027333,0,0,0,0,0,1,1,1
0.077033375,0,0,0,0,1,1,1,1
0.077130958,0,0,0,0,0,1,1,1
0.077136000,0,0,0,0,1,1,1,1
0.077157125,0,0,0,0,0,1,1,1
0.077186333,0,1,0,0,0,1,1,1
0.077287958,0,0,0,0,0,1,1,1
0.077326208,0,0,1,0,0,1,1,1
0.077905833,0,0,0,0,0,1,1,1
0.077911875,0,0,0,1,0,1,1,1
0.078007500,0,0,0,0,0,1,1,1
0.078013500,0,0,0,0,1,1,1,1
0.078111125,0,0,0,0,0,1,1,1
0.078116167,0,0,0,0,1,1,1,1
0.078137292,0,0,0,0,0,1,1,1
0.078166458,0,1,0,0,0,1,1,1
0.078268125,0,0,0,0,0,1,1,1
0.078306375,0,0,1,0,0,1,1,1
0.078886000,0,0,0,0,0,1,1,1
0.078892042,0,0,0,1,0,1,1,1
0.078958458,0,0,0,0,0,1,1,1
0.078964500,0,0,0,0,1,1,1,1
0.079062083,0,0,0,0,0,1,1,1
0.079067125,0,0,0,0,1,1,1,1
0.079088250,0,0,0,0,0,1,1,1
0.079117458,0,1,0,0,0,1,1,1
0.079219083,0,0,0,0,0,1,1,1
0.079257333,0,0,1,0,0,1,1,1
0.079836958,0,0,0,0,0,1,1,1
0.079843000,0,0,0,1,0,1,1,1
0.079961750,0,0,0,0,0,1,1,1
0.079967792,0,0,0,0,1,1,1,1
0.080065417,0,0,0,0,0,1,1,1
0.080070417,0,0,0,0,1,1,1,1
0.080091583,0,0,0,0,0,1,1,1
0.080120750,0,1,0,0,0,1,1,1
0.080222375,0,0,0,0,0,1,1,1
0.080260625,0,0,1,0,0,1,1,1
0.080840292,0,0,0,0,0,1,1,1
0.080846333,0,0,0,1,0,1,1,1
0.080966083,0,0,0,0,0,1,1,1
0.080972125,0,0,0,0,1,1,1,1
0.081069750,0,0,0,0,0,1,1,1
0.081074750,0,0,0,0,1,1,1,1
0.081095917,0,0,0,0,0,1,1,1
0.081125083,0,1,0,0,0,1,1,1
0.081226708,0,0,0,0,0,1,1,1
0.081264958,0,0,1,0,0,1,1,1
0.081844625,0,0,0,0,0,1,1,1
0.081850667,0,0,0,1,0,1,1,1
0.081992542,0,0,0,0,0,1,1,1
0.081998583,0,0,0,0,1,1,1,1
0.082096208,0,0,0,0,0,1,1,1
0.082101250,0,0,0,0,1,1,1,1
0.082122375,0,0,0,0,0,1,1,1
0.082151542,0,1,0,0,0,1,1,1
0.082253208,0,0,0,0,0,1,1,1
0.082291417,0,0,1,0,0,1,1,1
0.082871083,0,0,0,0,0,1,1,1
0.082877125,0,0,0,1,0,1,1,1
0.082961667,0,0,0,0,0,1,1,1
0.082967708,0,0,0,0,1,1,1,1
0.083065292,0,0,0,0,0,1,1,1
0.083070333,0,0,0,0,1,1,1,1
0.083091458,0,0,0,0,0,1,1,1
0.083120667,0,1,0,0,0,1,1,1
0.083222292,0,0,0,0,0,1,1,1
0.083260542,0,0,1,0,0,1,1,1
0.083840167,0,0,0,0,0,1,1,1
0.083846208,0,0,0,1,0,1,1,1
0.083944833,0,0,0,0,0,1,1,1
0.083950875,0,0,0,0,1,1,1,1
0.084048500,0,0,0,0,0,1,1,1
0.084053542,0,0,0,0,1,1,1,1
0.084074667,0,0,0,0,0,1,1,1
0.084103833,0,1,0,0,0,1,1,1
0.084205500,0,0,0,0,0,1,1,1
0.084243750,0,0,1,0,0,1,1,1
0.084823375,0,0,0,0,0,1,1,1
0.084829417,0,0,0,1,0,1,1,1
0.084924042,0,0,0,0,0,1,1,1
0.084930083,0,0,0,0,1,1,1,1
0.085027667,0,0,0,0,0,1,1,1
0.085032708,0,0,0,0,1,1,1,1
0.085053833,0,0,0,0,0,1,1,1
0.085083042,0,1,0,0,0,1,1,1
0.085184667,0,0,0,0,0,1,1,1
0.085222917,0,0,1,0,0,1,1,1
0.085802583,0,0,0,0,0,1,1,1
0.085808625,0,0,0,1,0,1,1,1
0.085876042,0,0,0,0,0,1,1,1
0.085882083,0,0,0,0,1,1,1,1
0.085979708,0,0,0,0,0,1,1,1
0.085984708,0,0,0,0,1,1,1,1
0.086005833,0,0,0,0,0,1,1,1
0.086035042,0,1,0,0,0,1,1,1
0.086136667,0,0,0,0,0,1,1,1
0.086174917,0,0,1,0,0,1,1,1
0.086754583,0,0,0,0,0,1,1,1
0.086760625,0,0,0,1,0,1,1,1
0.086878375,0,0,0,0,0,1,1,1
0.086884417,0,0,0,0,1,1,1,1
0.086982042,0,0,0,0,0,1,1,1
0.086987083,0,0,0,0,1,1,1,1
0.087008208,0,0,0,0,0,1,1,1
0.087037375,0,1,0,0,0,1,1,1
0.087139042,0,0,0,0,0,1,1,1
0.087177250,0,0,1,0,0,1,1,1
0.087756917,0,0,0,0,0,1,1,1
0.087762958,0,0,0,1,0,1,1,1
0.087883750,0,0,0,0,0,1,1,1
0.087889792,0,0,0,0,1,1,1,1
0.087987375,0,0,0,0,0,1,1,1
0.087992417,0,0,0,0,1,1,1,1
0.088013542,0,0,0,0,0,1,1,1
0.088042750,0,1,0,0,0,1,1,1
0.088144375,0,0,0,0,0,1,1,1
0.088182625,0,0,1,0,0,1,1,1
0.088762292,0,0,0,0,0,1,1,1
0.088768333,0,0,0,1,0,1,1,1
0.088908208,0,0,0,0,0,1,1,1
0.088914250,0,0,0,0,1,1,1,1
0.089011875,0,0,0,0,0,1,1,1
0.089016875,0,0,0,0,1,1,1,1
0.089038042,0,0,0,0,0,1,1,1
0.089067208,0,1,0,0,0,1,1,1
0.089168833,0,0,0,0,0,1,1,1
0.089207083,0,0,1,0,0,1,1,1
0.089786792,0,0,0,0,0,1,1,1
0.089792833,0,0,0,1,0,1,1,1
0.089879375,0,0,0,0,0,1,1,1
0.089885417,0,0,0,0,1,1,1,1
0.089983000,0,0,0,0,0,1,1,1
0.089988042,0,0,0,0,1,1,1,1
0.090009167,0,0,0,0,0,1,1,1
0.090038375,0,1,0,0,0,1,1,1
0.090140000,0,0,0,0,0,1,1,1
0.090178250,0,0,1,0,0,1,1,1
0.090757917,0,0,0,0,0,1,1,1
0.090763917,0,0,0,1,0,1,1,1
0.090861542,0,0,0,0,0,1,1,1
0.090867583,0,0,0,0,1,1,1,1
0.090965208,0,0,0,0,0,1,1,1
0.090970250,0,0,0,0,1,1,1,1
0.090991375,0,0,0,0,0,1,1,1
0.091020542,0,1,0,0,0,1,1,1
0.091122208,0,0,0,0,0,1,1,1
0.091160458,0,0,1,0,0,1,1,1
