Time [s],Channel 0,Channel 1,Channel 2,Channel 3,Channel 4,Channel 5,Channel 6,Channel 7
520.569727407,0,0,0,0,1,1,1,1
520.569796500,0,0,0,0,0,1,1,1
520.569802542,0,0,0,0,1,1,1,1
520.569824667,0,0,0,0,0,1,1,1
520.569853875,0,1,0,0,0,1,1,1
520.569955500,0,0,0,0,0,1,1,1
520.569993750,0,0,1,0,0,1,1,1
520.571279917,0,0,0,0,0,1,1,1
520.571284958,0,0,0,1,0,1,1,1
520.571407750,0,0,0,0,0,1,1,1
520.571413750,0,0,0,0,1,1,1,1
520.571509375,0,0,0,0,0,1,1,1
520.571515417,0,0,0,0,1,1,1,1
520.571537542,0,0,0,0,0,1,1,1
520.571566750,0,1,0,0,0,1,1,1
520.571668375,0,0,0,0,0,1,1,1
520.571706625,0,0,1,0,0,1,1,1
520.572992833,0,0,0,0,0,1,1,1
520.572997875,0,0,0,1,0,1,1,1
520.573153875,0,0,0,0,0,1,1,1
520.573159917,0,0,0,0,1,1,1,1
520.573255542,0,0,0,0,0,1,1,1
520.573261583,0,0,0,0,1,1,1,1
520.573283708,0,0,0,0,0,1,1,1
520.573312875,0,1,0,0,0,1,1,1
520.573414542,0,0,0,0,0,1,1,1
520.573452792,0,0,1,0,0,1,1,1
520.574738958,0,0,0,0,0,1,1,1
520.574744000,0,0,0,1,0,1,1,1
520.574902000,0,0,0,0,0,1,1,1
520.574908042,0,0,0,0,1,1,1,1
520.575003625,0,0,0,0,0,1,1,1
520.575009667,0,0,0,0,1,1,1,1
520.575031833,0,0,0,0,0,1,1,1
520.575061000,0,1,0,0,0,1,1,1
520.575162667,0,0,0,0,0,1,1,1
520.575200875,0,0,1,0,0,1,1,1
520.576487125,0,0,0,0,0,1,1,1
520.576492167,0,0,0,1,0,1,1,1
520.576648167,0,0,0,0,0,1,1,1
520.576654208,0,0,0,0,1,1,1,1
520.576749792,0,0,0,0,0,1,1,1
520.576755833,0,0,0,0,1,1,1,1
520.576778000,0,0,0,0,0,1,1,1
520.576807167,0,1,0,0,0,1,1,1
520.576908833,0,0,0,0,0,1,1,1
520.576947083,0,0,1,0,0,1,1,1
520.578233250,0,0,0,0,0,1,1,1
520.578238292,0,0,0,1,0,1,1,1
520.578396292,0,0,0,0,0,1,1,1
520.578402333,0,0,0,0,1,1,1,1
520.578497958,0,0,0,0,0,1,1,1
520.578503958,0,0,0,0,1,1,1,1
520.578526125,0,0,0,0,0,1,1,1
520.578555292,0,1,0,0,0,1,1,1
520.578656958,0,0,0,0,0,1,1,1
520.578695208,0,0,1,0,0,1,1,1
520.579981375,0,0,0,0,0,1,1,1
520.579986417,0,0,0,1,0,1,1,1
520.580142375,0,0,0,0,0,1,1,1
520.580148417,0,0,0,0,1,1,1,1
520.580244042,0,0,0,0,0,1,1,1
520.580250083,0,0,0,0,1,1,1,1
520.580272208,0,0,0,0,0,1,1,1
520.580301417,0,1,0,0,0,1,1,1
520.580403042,0,0,0,0,0,1,1,1
520.580441292,0,0,1,0,0,1,1,1
520.581727542,0,0,0,0,0,1,1,1
520.581732583,0,0,0,1,0,1,1,1
520.581890583,0,0,0,0,0,1,1,1
520.581896625,0,0,0,0,1,1,1,1
520.581992250,0,0,0,0,0,1,1,1
520.581998292,0,0,0,0,1,1,1,1
520.582020417,0,0,0,0,0,1,1,1
520.582049625,0,1,0,0,0,1,1,1
520.582151250,0,0,0,0,0,1,1,1
520.582189500,0,0,1,0,0,1,1,1
520.583475667,0,0,0,0,0,1,1,1
520.583480708,0,0,0,1,0,1,1,1
520.583636708,0,0,0,0,0,1,1,1
520.583642750,0,0,0,0,1,1,1,1
520.583738333,0,0,0,0,0,1,1,1
520.583744375,0,0,0,0,1,1,1,1
520.583766500,0,0,0,0,0,1,1,1
520.583795708,0,1,0,0,0,1,1,1
520.583897333,0,0,0,0,0,1,1,1
520.583935583,0,0,1,0,0,1,1,1
520.585221708,0,0,0,0,0,1,1,1
520.585226750,0,0,0,1,0,1,1,1
520.585384750,0,0,0,0,0,1,1,1
520.585390792,0,0,0,0,1,1,1,1
520.585486417,0,0,0,0,0,1,1,1
520.585492417,0,0,0,0,1,1,1,1
520.585514583,0,0,0,0,0,1,1,1
520.585543750,0,1,0,0,0,1,1,1
520.585645417,0,0,0,0,0,1,1,1
520.585683625,0,0,1,0,0,1,1,1
520.586969792,0,0,0,0,0,1,1,1
520.586974833,0,0,0,1,0,1,1,1
520.587130792,0,0,0,0,0,1,1,1
520.587136833,0,0,0,0,1,1,1,1
520.587232458,0,0,0,0,0,1,1,1
520.587238500,0,0,0,0,1,1,1,1
520.587260625,0,0,0,0,0,1,1,1
520.587289833,0,1,0,0,0,1,1,1
520.587391458,0,0,0,0,0,1,1,1
520.587429708,0,0,1,0,0,1,1,1
520.588715917,0,0,0,0,0,1,1,1
520.588720917,0,0,0,1,0,1,1,1
520.588878958,0,0,0,0,0,1,1,1
520.588885000,0,0,0,0,1,1,1,1
520.588980583,0,0,0,0,0,1,1,1
520.588986625,0,0,0,0,1,1,1,1
520.589008750,0,0,0,0,0,1,1,1
520.589037958,0,1,0,0,0,1,1,1
520.589139583,0,0,0,0,0,1,1,1
520.589177833,0,0,1,0,0,1,1,1
520.590464042,0,0,0,0,0,1,1,1
520.590469083,0,0,0,1,0,1,1,1
520.590625042,0,0,0,0,0,1,1,1
520.590631083,0,0,0,0,1,1,1,1
520.590726708,0,0,0,0,0,1,1,1
520.590732750,0,0,0,0,1,1,1,1
520.590754875,0,0,0,0,0,1,1,1
520.590784042,0,1,0,0,0,1,1,1
520.590885708,0,0,0,0,0,1,1,1
520.590923958,0,0,1,0,0,1,1,1
520.592210125,0,0,0,0,0,1,1,1
520.592215167,0,0,0,1,0,1,1,1
520.592373167,0,0,0,0,0,1,1,1
520.592379167,0,0,0,0,1,1,1,1
520.592474792,0,0,0,0,0,1,1,1
520.592480833,0,0,0,0,1,1,1,1
520.592502958,0,0,0,0,0,1,1,1
520.592532167,0,1,0,0,0,1,1,1
520.592633792,0,0,0,0,0,1,1,1
520.592672042,0,0,1,0,0,1,1,1
520.593958167,0,0,0,0,0,1,1,1
520.593963208,0,0,0,1,0,1,1,1
520.594119208,0,0,0,0,0,1,1,1
520.594125250,0,0,0,0,1,1,1,1
520.594220833,0,0,0,0,0,1,1,1
520.594226875,0,0,0,0,1,1,1,1
520.594249042,0,0,0,0,0,1,1,1
520.594278208,0,1,0,0,0,1,1,1
520.594379833,0,0,0,0,0,1,1,1
520.594418083,0,0,1,0,0,1,1,1
520.595704208,0,0,0,0,0,1,1,1
520.595709250,0,0,0,1,0,1,1,1
520.595867250,0,0,0,0,0,1,1,1
520.595873250,0,0,0,0,1,1,1,1
520.595968875,0,0,0,0,0,1,1,1
520.595974917,0,0,0,0,1,1,1,1
520.595997042,0,0,0,0,0,1,1,1
520.596026208,0,1,0,0,0,1,1,1
520.596127875,0,0,0,0,0,1,1,1
520.596166083,0,0,1,0,0,1,1,1
520.597452250,0,0,0,0,0,1,1,1
520.597457292,0,0,0,1,0,1,1,1
520.597613292,0,0,0,0,0,1,1,1
520.597619333,0,0,0,0,1,1,1,1
520.597714917,0,0,0,0,0,1,1,1
520.597720958,0,0,0,0,1,1,1,1
520.597743125,0,0,0,0,0,1,1,1
520.597772292,0,1,0,0,0,1,1,1
520.597873958,0,0,0,0,0,1,1,1
520.597912208,0,0,1,0,0,1,1,1
520.599198375,0,0,0,0,0,1,1,1
520.599203417,0,0,0,1,0,1,1,1
520.599361417,0,0,0,0,0,1,1,1
520.599367458,0,0,0,0,1,1,1,1
520.599463042,0,0,0,0,0,1,1,1
520.599469083,0,0,0,0,1,1,1,1
520.599491250,0,0,0,0,0,1,1,1
520.599520417,0,1,0,0,0,1,1,1
520.599622042,0,0,0,0,0,1,1,1
520.599660292,0,0,1,0,0,1,1,1
520.600946458,0,0,0,0,0,1,1,1
520.600951500,0,0,0,1,0,1,1,1
520.601107458,0,0,0,0,0,1,1,1
520.601113500,0,0,0,0,1,1,1,1
520.601209125,0,0,0,0,0,1,1,1
520.601215167,0,0,0,0,1,1,1,1
520.601237292,0,0,0,0,0,1,1,1
520.601266458,0,1,0,0,0,1,1,1
520.601368125,0,0,0,0,0,1,1,1
520.601406333,0,0,1,0,0,1,1,1
520.602692500,0,0,0,0,0,1,1,1
520.602697542,0,0,0,1,0,1,1,1
520.602855542,0,0,0,0,0,1,1,1
520.602861542,0,0,0,0,1,1,1,1
520.602957167,0,0,0,0,0,1,1,1
520.602963208,0,0,0,0,1,1,1,1
520.602985333,0,0,0,0,0,1,1,1
520.603014542,0,1,0,0,0,1,1,1
520.603116167,0,0,0,0,0,1,1,1
520.603154417,0,0,1,0,0,1,1,1
520.604440625,0,0,0,0,0,1,1,1
520.604445667,0,0,0,1,0,1,1,1
520.604601625,0,0,0,0,0,1,1,1
520.604607667,0,0,0,0,1,1,1,1
520.604703292,0,0,0,0,0,1,1,1
520.604709333,0,0,0,0,1,1,1,1
520.604731458,0,0,0,0,0,1,1,1
520.604760667,0,1,0,0,0,1,1,1
520.604862292,0,0,0,0,0,1,1,1
520.604900542,0,0,1,0,0,1,1,1
520.606186708,0,0,0,0,0,1,1,1
520.606191750,0,0,0,1,0,1,1,1
520.606349750,0,0,0,0,0,1,1,1
520.606355792,0,0,0,0,1,1,1,1
520.606451417,0,0,0,0,0,1,1,1
520.606457458,0,0,0,0,1,1,1,1
520.606479583,0,0,0,0,0,1,1,1
520.606508792,0,1,0,0,0,1,1,1
520.606610417,0,0,0,0,0,1,1,1
520.606648667,0,0,1,0,0,1,1,1
520.607934750,0,0,0,0,0,1,1,1
520.607939792,0,0,0,1,0,1,1,1
520.608095750,0,0,0,0,0,1,1,1
520.608101792,0,0,0,0,1,1,1,1
520.608197417,0,0,0,0,0,1,1,1
520.608203458,0,0,0,0,1,1,1,1
520.608225583,0,0,0,0,0,1,1,1
520.608254750,0,1,0,0,0,1,1,1
520.608356417,0,0,0,0,0,1,1,1
520.608394667,0,0,1,0,0,1,1,1
520.609680750,0,0,0,0,0,1,1,1
520.609685792,0,0,0,1,0,1,1,1
520.609843792,0,0,0,0,0,1,1,1
520.609849833,0,0,0,0,1,1,1,1
520.609945458,0,0,0,0,0,1,1,1
520.609951500,0,0,0,0,1,1,1,1
520.609973625,0,0,0,0,0,1,1,1
520.610002792,0,1,0,0,0,1,1,1
520.610104458,0,0,0,0,0,1,1,1
520.610142708,0,0,1,0,0,1,1,1
520.611428833,0,0,0,0,0,1,1,1
520.611433833,0,0,0,1,0,1,1,1
520.611589833,0,0,0,0,0,1,1,1
520.611595875,0,0,0,0,1,1,1,1
520.611691458,0,0,0,0,0,1,1,1
520.611697500,0,0,0,0,1,1,1,1
520.611719667,0,0,0,0,0,1,1,1
520.611748833,0,1,0,0,0,1,1,1
520.611850500,0,0,0,0,0,1,1,1
520.611888708,0,0,1,0,0,1,1,1
520.613174833,0,0,0,0,0,1,1,1
520.613179875,0,0,0,1,0,1,1,1
520.613337875,0,0,0,0,0,1,1,1
520.613343917,0,0,0,0,1,1,1,1
520.613439542,0,0,0,0,0,1,1,1
520.613445542,0,0,0,0,1,1,1,1
520.613467708,0,0,0,0,0,1,1,1
520.613496875,0,1,0,0,0,1,1,1
520.613598542,0,0,0,0,0,1,1,1
520.613636792,0,0,1,0,0,1,1,1
520.614922917,0,0,0,0,0,1,1,1
520.614927958,0,0,0,1,0,1,1,1
520.615085958,0,0,0,0,0,1,1,1
520.615092000,0,0,0,0,1,1,1,1
520.615187625,0,0,0,0,0,1,1,1
520.615193667,0,0,0,0,1,1,1,1
520.615215792,0,0,0,0,0,1,1,1
520.615244958,0,1,0,0,0,1,1,1
520.615346625,0,0,0,0,0,1,1,1
520.615384875,0,0,1,0,0,1,1,1
520.616671000,0,0,0,0,0,1,1,1
520.616676042,0,0,0,1,0,1,1,1
520.616798792,0,0,0,0,0,1,1,1
520.616804833,0,0,0,0,1,1,1,1
520.616900458,0,0,0,0,0,1,1,1
520.616906500,0,0,0,0,1,1,1,1
520.616928625,0,0,0,0,0,1,1,1
520.616957792,0,1,0,0,0,1,1,1
520.617059458,0,0,0,0,0,1,1,1
520.617097667,0,0,1,0,0,1,1,1
520.618383792,0,0,0,0,0,1,1,1
520.618388833,0,0,0,1,0,1,1,1
520.618544833,0,0,0,0,0,1,1,1
520.618550833,0,0,0,0,1,1,1,1
520.618646458,0,0,0,0,0,1,1,1
520.618652500,0,0,0,0,1,1,1,1
520.618674625,0,0,0,0,0,1,1,1
520.618703833,0,1,0,0,0,1,1,1
520.618805458,0,0,0,0,0,1,1,1
520.618843708,0,0,1,0,0,1,1,1
520.620129875,0,0,0,0,0,1,1,1
520.620134917,0,0,0,1,0,1,1,1
520.620292917,0,0,0,0,0,1,1,1
520.620298958,0,0,0,0,1,1,1,1
520.620394542,0,0,0,0,0,1,1,1
520.620400583,0,0,0,0,1,1,1,1
520.620422708,0,0,0,0,0,1,1,1
520.620451917,0,1,0,0,0,1,1,1
520.620553542,0,0,0,0,0,1,1,1
520.620591792,0,0,1,0,0,1,1,1
520.621877917,0,0,0,0,0,1,1,1
520.621882917,0,0,0,1,0,1,1,1
520.622038917,0,0,0,0,0,1,1,1
520.622044958,0,0,0,0,1,1,1,1
520.622140583,0,0,0,0,0,1,1,1
520.622146625,0,0,0,0,1,1,1,1
520.622168750,0,0,0,0,0,1,1,1
520.622197917,0,1,0,0,0,1,1,1
520.622299583,0,0,0,0,0,1,1,1
520.622337833,0,0,1,0,0,1,1,1
520.623623958,0,0,0,0,0,1,1,1
520.623629000,0,0,0,1,0,1,1,1
520.623787000,0,0,0,0,0,1,1,1
520.623793042,0,0,0,0,1,1,1,1
520.623888625,0,0,0,0,0,1,1,1
520.623894667,0,0,0,0,1,1,1,1
520.623916792,0,0,0,0,0,1,1,1
520.623946000,0,1,0,0,0,1,1,1
520.624047625,0,0,0,0,0,1,1,1
520.624085875,0,0,1,0,0,1,1,1
520.625372000,0,0,0,0,0,1,1,1
520.625377042,0,0,0,1,0,1,1,1
520.625533042,0,0,0,0,0,1,1,1
520.625539083,0,0,0,0,1,1,1,1
520.625634667,0,0,0,0,0,1,1,1
520.625640708,0,0,0,0,1,1,1,1
520.625662833,0,0,0,0,0,1,1,1
520.625692042,0,1,0,0,0,1,1,1
520.625793667,0,0,0,0,0,1,1,1
520.625831917,0,0,1,0,0,1,1,1
520.627118042,0,0,0,0,0,1,1,1
520.627123042,0,0,0,1,0,1,1,1
520.627281042,0,0,0,0,0,1,1,1
520.627287083,0,0,0,0,1,1,1,1
520.627382708,0,0,0,0,0,1,1,1
520.627388750,0,0,0,0,1,1,1,1
520.627410875,0,0,0,0,0,1,1,1
520.627440042,0,1,0,0,0,1,1,1
520.627541708,0,0,0,0,0,1,1,1
520.627579958,0,0,1,0,0,1,1,1
520.628866042,0,0,0,0,0,1,1,1
520.628871083,0,0,0,1,0,1,1,1
520.629027083,0,0,0,0,0,1,1,1
520.629033125,0,0,0,0,1,1,1,1
520.629128708,0,0,0,0,0,1,1,1
520.629134750,0,0,0,0,1,1,1,1
520.629156917,0,0,0,0,0,1,1,1
520.629186083,0,1,0,0,0,1,1,1
520.629287708,0,0,0,0,0,1,1,1
520.629325958,0,0,1,0,0,1,1,1
520.630612125,0,0,0,0,0,1,1,1
520.630617167,0,0,0,1,0,1,1,1
520.630775167,0,0,0,0,0,1,1,1
520.630781208,0,0,0,0,1,1,1,1
520.630876833,0,0,0,0,0,1,1,1
520.630882833,0,0,0,0,1,1,1,1
520.630905000,0,0,0,0,0,1,1,1
520.630934167,0,1,0,0,0,1,1,1
520.631035833,0,0,0,0,0,1,1,1
520.631074083,0,0,1,0,0,1,1,1
520.632360250,0,0,0,0,0,1,1,1
520.632365250,0,0,0,1,0,1,1,1
520.632521250,0,0,0,0,0,1,1,1
520.632527292,0,0,0,0,1,1,1,1
520.632622917,0,0,0,0,0,1,1,1
520.632628917,0,0,0,0,1,1,1,1
520.632651083,0,0,0,0,0,1,1,1
520.632680250,0,1,0,0,0,1,1,1
520.632781917,0,0,0,0,0,1,1,1
520.632820167,0,0,1,0,0,1,1,1
520.634106250,0,0,0,0,0,1,1,1
520.634111292,0,0,0,1,0,1,1,1
520.634269292,0,0,0,0,0,1,1,1
520.634275333,0,0,0,0,1,1,1,1
520.634370917,0,0,0,0,0,1,1,1
520.634376958,0,0,0,0,1,1,1,1
520.634399083,0,0,0,0,0,1,1,1
520.634428292,0,1,0,0,0,1,1,1
520.634529917,0,0,0,0,0,1,1,1
520.634568167,0,0,1,0,0,1,1,1
520.635854292,0,0,0,0,0,1,1,1
520.635859333,0,0,0,1,0,1,1,1
520.636015292,0,0,0,0,0,1,1,1
520.636021333,0,0,0,0,1,1,1,1
520.636116917,0,0,0,0,0,1,1,1
520.636122958,0,0,0,0,1,1,1,1
520.636145083,0,0,0,0,0,1,1,1
520.636174292,0,1,0,0,0,1,1,1
520.636275917,0,0,0,0,0,1,1,1
520.636314167,0,0,1,0,0,1,1,1
520.637600292,0,0,0,0,0,1,1,1
520.637605292,0,0,0,1,0,1,1,1
520.637763292,0,0,0,0,0,1,1,1
520.637769333,0,0,0,0,1,1,1,1
520.637864917,0,0,0,0,0,1,1,1
520.637870958,0,0,0,0,1,1,1,1
520.637893125,0,0,0,0,0,1,1,1
520.637922292,0,1,0,0,0,1,1,1
520.638023958,0,0,0,0,0,1,1,1
520.638062167,0,0,1,0,0,1,1,1
520.639348333,0,0,0,0,0,1,1,1
520.639353375,0,0,0,1,0,1,1,1
520.639509333,0,0,0,0,0,1,1,1
520.639515375,0,0,0,0,1,1,1,1
520.639611000,0,0,0,0,0,1,1,1
520.639617042,0,0,0,0,1,1,1,1
520.639639167,0,0,0,0,0,1,1,1
520.639668333,0,1,0,0,0,1,1,1
520.639770000,0,0,0,0,0,1,1,1
520.639808208,0,0,1,0,0,1,1,1
520.641094417,0,0,0,0,0,1,1,1
520.641099458,0,0,0,1,0,1,1,1
520.641257458,0,0,0,0,0,1,1,1
520.641263500,0,0,0,0,1,1,1,1
520.641359083,0,0,0,0,0,1,1,1
520.641365125,0,0,0,0,1,1,1,1
520.641387292,0,0,0,0,0,1,1,1
520.641416458,0,1,0,0,0,1,1,1
520.641518083,0,0,0,0,0,1,1,1
520.641556333,0,0,1,0,0,1,1,1
520.642842500,0,0,0,0,0,1,1,1
520.642847542,0,0,0,1,0,1,1,1
520.643003542,0,0,0,0,0,1,1,1
520.643009583,0,0,0,0,1,1,1,1
520.643105167,0,0,0,0,0,1,1,1
520.643111208,0,0,0,0,1,1,1,1
520.643133333,0,0,0,0,0,1,1,1
520.643162542,0,1,0,0,0,1,1,1
520.643264167,0,0,0,0,0,1,1,1
520.643302417,0,0,1,0,0,1,1,1
520.644588542,0,0,0,0,0,1,1,1
520.644593583,0,0,0,1,0,1,1,1
520.644751583,0,0,0,0,0,1,1,1
520.644757625,0,0,0,0,1,1,1,1
520.644853208,0,0,0,0,0,1,1,1
520.644859250,0,0,0,0,1,1,1,1
520.644881375,0,0,0,0,0,1,1,1
520.644910583,0,1,0,0,0,1,1,1
520.645012208,0,0,0,0,0,1,1,1
520.645050458,0,0,1,0,0,1,1,1
520.646336625,0,0,0,0,0,1,1,1
520.646341667,0,0,0,1,0,1,1,1
520.646497625,0,0,0,0,0,1,1,1
520.646503667,0,0,0,0,1,1,1,1
520.646599292,0,0,0,0,0,1,1,1
520.646605292,0,0,0,0,1,1,1,1
520.646627458,0,0,0,0,0,1,1,1
520.646656625,0,1,0,0,0,1,1,1
520.646758292,0,0,0,0,0,1,1,1
520.646796500,0,0,1,0,0,1,1,1
520.648082667,0,0,0,0,0,1,1,1
520.648087708,0,0,0,1,0,1,1,1
520.648245708,0,0,0,0,0,1,1,1
520.648251750,0,0,0,0,1,1,1,1
520.648347333,0,0,0,0,0,1,1,1
520.648353375,0,0,0,0,1,1,1,1
520.648375500,0,0,0,0,0,1,1,1
520.648404708,0,1,0,0,0,1,1,1
520.648506333,0,0,0,0,0,1,1,1
520.648544583,0,0,1,0,0,1,1,1
520.649830667,0,0,0,0,0,1,1,1
520.649835708,0,0,0,1,0,1,1,1
520.649991708,0,0,0,0,0,1,1,1
520.649997708,0,0,0,0,1,1,1,1
520.650093333,0,0,0,0,0,1,1,1
520.650099375,0,0,0,0,1,1,1,1
520.650121500,0,0,0,0,0,1,1,1
520.650150708,0,1,0,0,0,1,1,1
520.650252333,0,0,0,0,0,1,1,1
520.650290583,0,0,1,0,0,1,1,1
520.651576667,0,0,0,0,0,1,1,1
520.651581708,0,0,0,1,0,1,1,1
520.651739708,0,0,0,0,0,1,1,1
520.651745750,0,0,0,0,1,1,1,1
520.651841333,0,0,0,0,0,1,1,1
520.651847375,0,0,0,0,1,1,1,1
520.651869500,0,0,0,0,0,1,1,1
520.651898667,0,1,0,0,0,1,1,1
520.652000333,0,0,0,0,0,1,1,1
520.652038583,0,0,1,0,0,1,1,1
520.653324708,0,0,0,0,0,1,1,1
520.653329708,0,0,0,1,0,1,1,1
520.653485708,0,0,0,0,0,1,1,1
520.653491750,0,0,0,0,1,1,1,1
520.653587375,0,0,0,0,0,1,1,1
520.653593375,0,0,0,0,1,1,1,1
520.653615542,0,0,0,0,0,1,1,1
520.653644708,0,1,0,0,0,1,1,1
520.653746375,0,0,0,0,0,1,1,1
520.653784625,0,0,1,0,0,1,1,1
520.655070750,0,0,0,0,0,1,1,1
520.655075792,0,0,0,1,0,1,1,1
520.655233792,0,0,0,0,0,1,1,1
520.655239833,0,0,0,0,1,1,1,1
520.655335417,0,0,0,0,0,1,1,1
520.655341458,0,0,0,0,1,1,1,1
520.655363625,0,0,0,0,0,1,1,1
520.655392792,0,1,0,0,0,1,1,1
520.655494417,0,0,0,0,0,1,1,1
520.655532667,0,0,1,0,0,1,1,1
520.656818833,0,0,0,0,0,1,1,1
520.656823833,0,0,0,1,0,1,1,1
520.656979833,0,0,0,0,0,1,1,1
520.656985875,0,0,0,0,1,1,1,1
520.657081458,0,0,0,0,0,1,1,1
520.657087500,0,0,0,0,1,1,1,1
520.657109667,0,0,0,0,0,1,1,1
520.657138833,0,1,0,0,0,1,1,1
520.657240458,0,0,0,0,0,1,1,1
520.657278708,0,0,1,0,0,1,1,1
520.658564833,0,0,0,0,0,1,1,1
520.658569875,0,0,0,1,0,1,1,1
520.658727875,0,0,0,0,0,1,1,1
520.658733875,0,0,0,0,1,1,1,1
520.658829500,0,0,0,0,0,1,1,1
520.658835542,0,0,0,0,1,1,1,1
520.658857667,0,0,0,0,0,1,1,1
520.658886875,0,1,0,0,0,1,1,1
520.658988500,0,0,0,0,0,1,1,1
520.659026750,0,0,1,0,0,1,1,1
520.660312875,0,0,0,0,0,1,1,1
520.660317917,0,0,0,1,0,1,1,1
520.660475917,0,0,0,0,0,1,1,1
520.660481958,0,0,0,0,1,1,1,1
520.660577542,0,0,0,0,0,1,1,1
520.660583583,0,0,0,0,1,1,1,1
520.660605750,0,0,0,0,0,1,1,1
520.660634917,0,1,0,0,0,1,1,1
520.660736583,0,0,0,0,0,1,1,1
520.660774792,0,0,1,0,0,1,1,1
520.662060917,0,0,0,0,0,1,1,1
520.662065958,0,0,0,1,0,1,1,1
520.662189750,0,0,0,0,0,1,1,1
520.662195792,0,0,0,0,1,1,1,1
520.662291375,0,0,0,0,0,1,1,1
520.662297417,0,0,0,0,1,1,1,1
520.662319542,0,0,0,0,0,1,1,1
520.662348750,0,1,0,0,0,1,1,1
520.662450375,0,0,0,0,0,1,1,1
520.662488625,0,0,1,0,0,1,1,1
520.663774750,0,0,0,0,0,1,1,1
520.663779750,0,0,0,1,0,1,1,1
520.663935750,0,0,0,0,0,1,1,1
520.663941792,0,0,0,0,1,1,1,1
520.664037417,0,0,0,0,0,1,1,1
520.664043417,0,0,0,0,1,1,1,1
520.664065583,0,0,0,0,0,1,1,1
520.664094750,0,1,0,0,0,1,1,1
520.664196417,0,0,0,0,0,1,1,1
520.664234667,0,0,1,0,0,1,1,1
520.665520708,0,0,0,0,0,1,1,1
520.665525750,0,0,0,1,0,1,1,1
520.665683750,0,0,0,0,0,1,1,1
520.665689792,0,0,0,0,1,1,1,1
520.665785375,0,0,0,0,0,1,1,1
520.665791417,0,0,0,0,1,1,1,1
520.665813542,0,0,0,0,0,1,1,1
520.665842750,0,1,0,0,0,1,1,1
520.665944375,0,0,0,0,0,1,1,1
520.665982625,0,0,1,0,0,1,1,1
520.667268708,0,0,0,0,0,1,1,1
520.667273708,0,0,0,1,0,1,1,1
520.667429708,0,0,0,0,0,1,1,1
520.667435750,0,0,0,0,1,1,1,1
520.667531333,0,0,0,0,0,1,1,1
520.667537375,0,0,0,0,1,1,1,1
520.667559500,0,0,0,0,0,1,1,1
520.667588708,0,1,0,0,0,1,1,1
520.667690333,0,0,0,0,0,1,1,1
520.667728583,0,0,1,0,0,1,1,1
520.669014708,0,0,0,0,0,1,1,1
520.669019708,0,0,0,1,0,1,1,1
520.669177750,0,0,0,0,0,1,1,1
520.669183750,0,0,0,0,1,1,1,1
520.669279375,0,0,0,0,0,1,1,1
520.669285417,0,0,0,0,1,1,1,1
520.669307542,0,0,0,0,0,1,1,1
520.669336750,0,1,0,0,0,1,1,1
520.669438375,0,0,0,0,0,1,1,1
520.669476625,0,0,1,0,0,1,1,1
520.670762750,0,0,0,0,0,1,1,1
520.670767792,0,0,0,1,0,1,1,1
520.670978125,0,0,0,0,0,1,1,1
520.670984167,0,0,0,0,1,1,1,1
520.671079792,0,0,0,0,0,1,1,1
520.671085792,0,0,0,0,1,1,1,1
520.671107958,0,0,0,0,0,1,1,1
520.671137125,0,1,0,0,0,1,1,1
520.671238750,0,0,0,0,0,1,1,1
520.671277000,0,0,1,0,0,1,1,1
520.672563167,0,0,0,0,0,1,1,1
520.672568208,0,0,0,1,0,1,1,1
520.672726208,0,0,0,0,0,1,1,1
520.672732250,0,0,0,0,1,1,1,1
520.672827833,0,0,0,0,0,1,1,1
520.672833875,0,0,0,0,1,1,1,1
520.672856000,0,0,0,0,0,1,1,1
520.672885208,0,1,0,0,0,1,1,1
520.672986833,0,0,0,0,0,1,1,1
520.673025083,0,0,1,0,0,1,1,1
520.674311250,0,0,0,0,0,1,1,1
520.674316292,0,0,0,1,0,1,1,1
520.674472250,0,0,0,0,0,1,1,1
520.674478292,0,0,0,0,1,1,1,1
520.674573917,0,0,0,0,0,1,1,1
520.674579958,0,0,0,0,1,1,1,1
520.674602083,0,0,0,0,0,1,1,1
520.674631250,0,1,0,0,0,1,1,1
520.674732917,0,0,0,0,0,1,1,1
520.674771167,0,0,1,0,0,1,1,1
520.676057250,0,0,0,0,0,1,1,1
520.676062292,0,0,0,1,0,1,1,1
520.676220292,0,0,0,0,0,1,1,1
520.676226333,0,0,0,0,1,1,1,1
520.676321917,0,0,0,0,0,1,1,1
520.676327958,0,0,0,0,1,1,1,1
520.676350083,0,0,0,0,0,1,1,1
520.676379292,0,1,0,0,0,1,1,1
520.676480917,0,0,0,0,0,1,1,1
520.676519167,0,0,1,0,0,1,1,1
520.677805250,0,0,0,0,0,1,1,1
520.677810292,0,0,0,1,0,1,1,1
520.677966250,0,0,0,0,0,1,1,1
520.677972292,0,0,0,0,1,1,1,1
520.678067917,0,0,0,0,0,1,1,1
520.678073958,0,0,0,0,1,1,1,1
520.678096083,0,0,0,0,0,1,1,1
520.678125250,0,1,0,0,0,1,1,1
520.678226917,0,0,0,0,0,1,1,1
520.678265125,0,0,1,0,0,1,1,1
520.679551292,0,0,0,0,0,1,1,1
520.679556333,0,0,0,1,0,1,1,1
520.679714333,0,0,0,0,0,1,1,1
520.679720375,0,0,0,0,1,1,1,1
520.679815958,0,0,0,0,0,1,1,1
520.679822000,0,0,0,0,1,1,1,1
520.679844167,0,0,0,0,0,1,1,1
520.679873333,0,1,0,0,0,1,1,1
520.679974958,0,0,0,0,0,1,1,1
520.680013208,0,0,1,0,0,1,1,1
520.681299333,0,0,0,0,0,1,1,1
520.681304375,0,0,0,1,0,1,1,1
520.681460333,0,0,0,0,0,1,1,1
520.681466375,0,0,0,0,1,1,1,1
520.681562000,0,0,0,0,0,1,1,1
520.681568042,0,0,0,0,1,1,1,1
520.681590167,0,0,0,0,0,1,1,1
520.681619333,0,1,0,0,0,1,1,1
520.681721000,0,0,0,0,0,1,1,1
520.681759250,0,0,1,0,0,1,1,1
520.683045417,0,0,0,0,0,1,1,1
520.683050458,0,0,0,1,0,1,1,1
520.683208458,0,0,0,0,0,1,1,1
520.683214500,0,0,0,0,1,1,1,1
520.683310125,0,0,0,0,0,1,1,1
520.683316167,0,0,0,0,1,1,1,1
520.683338292,0,0,0,0,0,1,1,1
520.683367500,0,1,0,0,0,1,1,1
520.683469125,0,0,0,0,0,1,1,1
520.683507375,0,0,1,0,0,1,1,1
520.684793500,0,0,0,0,0,1,1,1
520.684798542,0,0,0,1,0,1,1,1
520.684954542,0,0,0,0,0,1,1,1
520.684960583,0,0,0,0,1,1,1,1
520.685056167,0,0,0,0,0,1,1,1
520.685062208,0,0,0,0,1,1,1,1
