Time [s],Channel 0,Channel 1,Channel 2,Channel 3,Channel 4,Channel 5,Channel 6,Channel 7
0.000000000,0,0,0,1,0,1,1,1
0.000006000,0,0,0,1,0,1,0,0
0.000008000,0,1,1,1,1,1,0,0
0.000010000,1,1,1,1,1,1,0,0
3.362958000,1,1,1,1,1,1,1,0
3.364428000,1,0,0,0,0,1,1,0
3.364440000,0,0,0,0,0,1,1,0
3.364556000,0,0,1,0,0,1,1,0
3.365102000,0,0,0,0,0,1,1,0
3.365106000,0,0,0,1,0,1,1,0
3.464524000,0,0,0,0,0,1,1,0
3.464530000,0,0,0,0,1,1,1,0
3.464626000,0,0,0,0,0,1,1,0
3.464630000,0,0,0,0,1,1,1,0
3.464652000,0,0,0,0,0,1,1,0
3.464682000,0,1,0,0,0,1,1,0
3.464686000,0,0,0,0,0,1,1,0
3.464698000,0,1,0,0,0,1,1,0
3.464802000,0,0,0,0,0,1,1,0
3.464840000,0,0,1,0,0,1,1,0
3.465384000,0,0,0,0,0,1,1,0
3.465390000,0,0,0,1,0,1,1,0
3.492732000,0,0,0,0,0,1,1,0
3.492738000,0,0,0,0,1,1,1,0
3.492834000,0,0,0,0,0,1,1,0
3.492840000,0,0,0,0,1,1,1,0
3.492862000,0,0,0,0,0,1,1,0
3.492890000,0,1,0,0,0,1,1,0
3.492994000,0,0,0,0,0,1,1,0
3.493032000,0,0,1,0,0,1,1,0
3.493578000,0,0,0,0,0,1,1,0
3.493582000,0,0,0,1,0,1,1,0
3.493624000,1,0,0,1,0,1,1,0
3.493630000,0,0,0,1,0,1,1,0
3.493660000,0,0,0,0,0,1,1,0
3.493666000,0,0,0,0,1,1,1,0
3.493762000,0,0,0,0,0,1,1,0
3.493768000,0,0,0,0,1,1,1,0
3.493790000,0,0,0,0,0,1,1,0
3.493818000,0,1,0,0,0,1,1,0
3.493922000,0,0,0,0,0,1,1,0
3.493960000,0,0,1,0,0,1,1,0
3.494504000,0,0,0,0,0,1,1,0
3.494510000,0,0,0,1,0,1,1,0
3.494600000,0,0,0,0,0,1,1,0
3.494606000,0,0,0,0,1,1,1,0
3.494704000,0,0,0,0,0,1,1,0
3.494708000,0,0,0,0,1,1,1,0
3.494730000,0,0,0,0,0,1,1,0
3.494758000,0,1,0,0,0,1,1,0
3.494862000,0,0,0,0,0,1,1,0
3.494900000,0,0,1,0,0,1,1,0
3.495446000,0,0,0,0,0,1,1,0
3.495452000,0,0,0,1,0,1,1,0
3.502182000,0,0,0,0,0,1,1,0
3.502188000,0,0,0,0,1,1,1,0
3.502286000,0,0,0,0,0,1,1,0
3.502290000,0,0,0,0,1,1,1,0
3.502312000,0,0,0,0,0,1,1,0
3.502340000,0,1,0,0,0,1,1,0
3.502444000,0,0,0,0,0,1,1,0
3.502482000,0,0,1,0,0,1,1,0
3.503028000,0,0,0,0,0,1,1,0
3.503032000,0,0,0,1,0,1,1,0
3.509914000,0,0,0,0,0,1,1,0
3.509920000,0,0,0,0,1,1,1,0
3.510016000,0,0,0,0,0,1,1,0
3.510022000,0,0,0,0,1,1,1,0
3.510044000,0,0,0,0,0,1,1,0
3.510072000,0,1,0,0,0,1,1,0
3.510176000,0,0,0,0,0,1,1,0
3.510214000,0,0,1,0,0,1,1,0
3.510760000,0,0,0,0,0,1,1,0
3.510764000,0,0,0,1,0,1,1,0
3.523218000,0,0,0,0,0,1,1,0
3.523224000,0,0,0,0,1,1,1,0
3.523322000,0,0,0,0,0,1,1,0
3.523326000,0,0,0,0,1,1,1,0
3.523348000,0,0,0,0,0,1,1,0
3.523376000,0,1,0,0,0,1,1,0
3.523480000,0,0,0,0,0,1,1,0
3.523518000,0,0,1,0,0,1,1,0
3.524062000,0,0,0,0,0,1,1,0
3.524068000,0,0,0,1,0,1,1,0
3.532752000,0,0,0,0,0,1,1,0
3.532758000,0,0,0,0,1,1,1,0
3.532854000,0,0,0,0,0,1,1,0
3.532858000,0,0,0,0,1,1,1,0
3.532882000,0,0,0,0,0,1,1,0
3.532910000,0,1,0,0,0,1,1,0
3.533012000,0,0,0,0,0,1,1,0
3.533052000,0,0,1,0,0,1,1,0
3.533596000,0,0,0,0,0,1,1,0
3.533602000,0,0,0,1,0,1,1,0
3.632928000,0,0,0,0,0,1,1,0
3.632934000,0,0,0,0,1,1,1,0
3.633030000,0,0,0,0,0,1,1,0
3.633036000,0,0,0,0,1,1,1,0
3.633058000,0,0,0,0,0,1,1,0
3.633086000,0,1,0,0,0,1,1,0
3.633190000,0,0,0,0,0,1,1,0
3.633228000,0,0,1,0,0,1,1,0
3.633772000,0,0,0,0,0,1,1,0
3.633778000,0,0,0,1,0,1,1,0
3.661024000,0,0,0,0,0,1,1,0
3.661030000,0,0,0,0,1,1,1,0
3.661126000,0,0,0,0,0,1,1,0
3.661132000,0,0,0,0,1,1,1,0
3.661154000,0,0,0,0,0,1,1,0
3.661182000,0,1,0,0,0,1,1,0
3.661286000,0,0,0,0,0,1,1,0
3.661324000,0,0,1,0,0,1,1,0
3.661870000,0,0,0,0,0,1,1,0
3.661874000,0,0,0,1,0,1,1,0
3.661916000,1,0,0,1,0,1,1,0
3.661922000,0,0,0,1,0,1,1,0
3.661952000,0,0,0,0,0,1,1,0
3.661958000,0,0,0,0,1,1,1,0
3.662054000,0,0,0,0,0,1,1,0
3.662060000,0,0,0,0,1,1,1,0
3.662082000,0,0,0,0,0,1,1,0
3.662110000,0,1,0,0,0,1,1,0
3.662214000,0,0,0,0,0,1,1,0
3.662252000,0,0,1,0,0,1,1,0
3.662796000,0,0,0,0,0,1,1,0
3.662802000,0,0,0,1,0,1,1,0
3.662892000,0,0,0,0,0,1,1,0
3.662898000,0,0,0,0,1,1,1,0
3.662996000,0,0,0,0,0,1,1,0
3.663000000,0,0,0,0,1,1,1,0
3.663022000,0,0,0,0,0,1,1,0
3.663050000,0,1,0,0,0,1,1,0
3.663154000,0,0,0,0,0,1,1,0
3.663192000,0,0,1,0,0,1,1,0
3.663738000,0,0,0,0,0,1,1,0
3.663744000,0,0,0,1,0,1,1,0
3.670476000,0,0,0,0,0,1,1,0
3.670482000,0,0,0,0,1,1,1,0
3.670580000,0,0,0,0,0,1,1,0
3.670584000,0,0,0,0,1,1,1,0
3.670606000,0,0,0,0,0,1,1,0
3.670634000,0,1,0,0,0,1,1,0
3.670738000,0,0,0,0,0,1,1,0
3.670776000,0,0,1,0,0,1,1,0
3.671322000,0,0,0,0,0,1,1,0
3.671326000,0,0,0,1,0,1,1,0
3.678208000,0,0,0,0,0,1,1,0
3.678214000,0,0,0,0,1,1,1,0
3.678310000,0,0,0,0,0,1,1,0
3.678316000,0,0,0,0,1,1,1,0
3.678338000,0,0,0,0,0,1,1,0
3.678366000,0,1,0,0,0,1,1,0
3.678470000,0,0,0,0,0,1,1,0
3.678508000,0,0,1,0,0,1,1,0
3.679054000,0,0,0,0,0,1,1,0
3.679058000,0,0,0,1,0,1,1,0
3.691524000,0,0,0,0,0,1,1,0
3.691530000,0,0,0,0,1,1,1,0
3.691628000,0,0,0,0,0,1,1,0
3.691632000,0,0,0,0,1,1,1,0
3.691654000,0,0,0,0,0,1,1,0
3.691682000,0,1,0,0,0,1,1,0
3.691786000,0,0,0,0,0,1,1,0
3.691824000,0,0,1,0,0,1,1,0
3.692368000,0,0,0,0,0,1,1,0
3.692374000,0,0,0,1,0,1,1,0
3.701060000,0,0,0,0,0,1,1,0
3.701066000,0,0,0,0,1,1,1,0
3.701162000,0,0,0,0,0,1,1,0
3.701168000,0,0,0,0,1,1,1,0
3.701190000,0,0,0,0,0,1,1,0
3.701218000,0,1,0,0,0,1,1,0
3.701322000,0,0,0,0,0,1,1,0
3.701360000,0,0,1,0,0,1,1,0
3.701906000,0,0,0,0,0,1,1,0
3.701910000,0,0,0,1,0,1,1,0
3.801238000,0,0,0,0,0,1,1,0
3.801244000,0,0,0,0,1,1,1,0
3.801342000,0,0,0,0,0,1,1,0
3.801346000,0,0,0,0,1,1,1,0
3.801368000,0,0,0,0,0,1,1,0
3.801396000,0,1,0,0,0,1,1,0
3.801500000,0,0,0,0,0,1,1,0
3.801538000,0,0,1,0,0,1,1,0
3.802082000,0,0,0,0,0,1,1,0
3.802088000,0,0,0,1,0,1,1,0
3.829452000,0,0,0,0,0,1,1,0
3.829458000,0,0,0,0,1,1,1,0
3.829554000,0,0,0,0,0,1,1,0
3.829558000,0,0,0,0,1,1,1,0
3.829582000,0,0,0,0,0,1,1,0
3.829610000,0,1,0,0,0,1,1,0
3.829712000,0,0,0,0,0,1,1,0
3.829752000,0,0,1,0,0,1,1,0
3.830296000,0,0,0,0,0,1,1,0
3.830302000,0,0,0,1,0,1,1,0
3.830344000,1,0,0,1,0,1,1,0
3.830348000,0,0,0,1,0,1,1,0
3.830380000,0,0,0,0,0,1,1,0
3.830386000,0,0,0,0,1,1,1,0
3.830482000,0,0,0,0,0,1,1,0
3.830486000,0,0,0,0,1,1,1,0
3.830508000,0,0,0,0,0,1,1,0
3.830538000,0,1,0,0,0,1,1,0
3.830640000,0,0,0,0,0,1,1,0
3.830680000,0,0,1,0,0,1,1,0
3.831224000,0,0,0,0,0,1,1,0
3.831228000,0,0,0,1,0,1,1,0
3.831320000,0,0,0,0,0,1,1,0
3.831326000,0,0,0,0,1,1,1,0
3.831422000,0,0,0,0,0,1,1,0
3.831428000,0,0,0,0,1,1,1,0
3.831450000,0,0,0,0,0,1,1,0
3.831478000,0,1,0,0,0,1,1,0
3.831582000,0,0,0,0,0,1,1,0
3.831620000,0,0,1,0,0,1,1,0
3.832166000,0,0,0,0,0,1,1,0
3.832170000,0,0,0,1,0,1,1,0
3.838900000,0,0,0,0,0,1,1,0
3.838906000,0,0,0,0,1,1,1,0
3.839002000,0,0,0,0,0,1,1,0
3.839008000,0,0,0,0,1,1,1,0
3.839030000,0,0,0,0,0,1,1,0
3.839058000,0,1,0,0,0,1,1,0
3.839162000,0,0,0,0,0,1,1,0
3.839200000,0,0,1,0,0,1,1,0
3.839744000,0,0,0,0,0,1,1,0
3.839748000,0,0,0,1,0,1,1,0
3.846630000,0,0,0,0,0,1,1,0
3.846636000,0,0,0,0,1,1,1,0
3.846734000,0,0,0,0,0,1,1,0
3.846738000,0,0,0,0,1,1,1,0
3.846760000,0,0,0,0,0,1,1,0
3.846788000,0,1,0,0,0,1,1,0
3.846892000,0,0,0,0,0,1,1,0
3.846930000,0,0,1,0,0,1,1,0
3.847476000,0,0,0,0,0,1,1,0
3.847480000,0,0,0,1,0,1,1,0
3.859944000,0,0,0,0,0,1,1,0
3.859950000,0,0,0,0,1,1,1,0
3.860046000,0,0,0,0,0,1,1,0
3.860052000,0,0,0,0,1,1,1,0
3.860074000,0,0,0,0,0,1,1,0
3.860102000,0,1,0,0,0,1,1,0
3.860206000,0,0,0,0,0,1,1,0
3.860244000,0,0,1,0,0,1,1,0
3.860788000,0,0,0,0,0,1,1,0
3.860794000,0,0,0,1,0,1,1,0
3.869480000,0,0,0,0,0,1,1,0
3.869486000,0,0,0,0,1,1,1,0
3.869582000,0,0,0,0,0,1,1,0
3.869586000,0,0,0,0,1,1,1,0
3.869608000,0,0,0,0,0,1,1,0
3.869638000,0,1,0,0,0,1,1,0
3.869740000,0,0,0,0,0,1,1,0
3.869778000,0,0,1,0,0,1,1,0
3.870324000,0,0,0,0,0,1,1,0
3.870330000,0,0,0,1,0,1,1,0
3.969748000,0,0,0,0,0,1,1,0
3.969754000,0,0,0,0,1,1,1,0
3.969852000,0,0,0,0,0,1,1,0
3.969856000,0,0,0,0,1,1,1,0
3.969878000,0,0,0,0,0,1,1,0
3.969906000,0,1,0,0,0,1,1,0
3.970010000,0,0,0,0,0,1,1,0
3.970048000,0,0,1,0,0,1,1,0
3.970594000,0,0,0,0,0,1,1,0
3.970598000,0,0,0,1,0,1,1,0
3.997940000,0,0,0,0,0,1,1,0
3.997946000,0,0,0,0,1,1,1,0
3.998042000,0,0,0,0,0,1,1,0
3.998048000,0,0,0,0,1,1,1,0
3.998070000,0,0,0,0,0,1,1,0
3.998098000,0,1,0,0,0,1,1,0
3.998202000,0,0,0,0,0,1,1,0
3.998240000,0,0,1,0,0,1,1,0
3.998786000,0,0,0,0,0,1,1,0
3.998790000,0,0,0,1,0,1,1,0
3.998832000,1,0,0,1,0,1,1,0
3.998838000,0,0,0,1,0,1,1,0
3.998868000,0,0,0,0,0,1,1,0
3.998874000,0,0,0,0,1,1,1,0
3.998970000,0,0,0,0,0,1,1,0
3.998976000,0,0,0,0,1,1,1,0
3.998998000,0,0,0,0,0,1,1,0
3.999026000,0,1,0,0,0,1,1,0
3.999130000,0,0,0,0,0,1,1,0
3.999168000,0,0,1,0,0,1,1,0
3.999712000,0,0,0,0,0,1,1,0
3.999718000,0,0,0,1,0,1,1,0
3.999808000,0,0,0,0,0,1,1,0
3.999814000,0,0,0,0,1,1,1,0
3.999912000,0,0,0,0,0,1,1,0
3.999916000,0,0,0,0,1,1,1,0
3.999938000,0,0,0,0,0,1,1,0
3.999966000,0,1,0,0,0,1,1,0
4.000070000,0,0,0,0,0,1,1,0
4.000108000,0,0,1,0,0,1,1,0
4.000654000,0,0,0,0,0,1,1,0
4.000658000,0,0,0,1,0,1,1,0
4.007392000,0,0,0,0,0,1,1,0
4.007398000,0,0,0,0,1,1,1,0
4.007496000,0,0,0,0,0,1,1,0
4.007500000,0,0,0,0,1,1,1,0
4.007522000,0,0,0,0,0,1,1,0
4.007550000,0,1,0,0,0,1,1,0
4.007654000,0,0,0,0,0,1,1,0
4.007692000,0,0,1,0,0,1,1,0
4.008236000,0,0,0,0,0,1,1,0
4.008242000,0,0,0,1,0,1,1,0
4.015124000,0,0,0,0,0,1,1,0
4.015130000,0,0,0,0,1,1,1,0
4.015226000,0,0,0,0,0,1,1,0
4.015232000,0,0,0,0,1,1,1,0
4.015254000,0,0,0,0,0,1,1,0
4.015282000,0,1,0,0,0,1,1,0
4.015386000,0,0,0,0,0,1,1,0
4.015424000,0,0,1,0,0,1,1,0
4.015968000,0,0,0,0,0,1,1,0
4.015974000,0,0,0,1,0,1,1,0
4.028428000,0,0,0,0,0,1,1,0
4.028434000,0,0,0,0,1,1,1,0
4.028530000,0,0,0,0,0,1,1,0
4.028536000,0,0,0,0,1,1,1,0
4.028558000,0,0,0,0,0,1,1,0
4.028586000,0,1,0,0,0,1,1,0
4.028690000,0,0,0,0,0,1,1,0
4.028728000,0,0,1,0,0,1,1,0
4.029272000,0,0,0,0,0,1,1,0
4.029278000,0,0,0,1,0,1,1,0
4.037960000,0,0,0,0,0,1,1,0
4.037966000,0,0,0,0,1,1,1,0
4.038062000,0,0,0,0,0,1,1,0
4.038068000,0,0,0,0,1,1,1,0
4.038090000,0,0,0,0,0,1,1,0
4.038118000,0,1,0,0,0,1,1,0
4.038222000,0,0,0,0,0,1,1,0
4.038260000,0,0,1,0,0,1,1,0
4.038806000,0,0,0,0,0,1,1,0
4.038810000,0,0,0,1,0,1,1,0
4.138132000,0,0,0,0,0,1,1,0
4.138138000,0,0,0,0,1,1,1,0
4.138234000,0,0,0,0,0,1,1,0
4.138240000,0,0,0,0,1,1,1,0
4.138262000,0,0,0,0,0,1,1,0
4.138290000,0,1,0,0,0,1,1,0
4.138394000,0,0,0,0,0,1,1,0
4.138432000,0,0,1,0,0,1,1,0
4.138976000,0,0,0,0,0,1,1,0
4.138982000,0,0,0,1,0,1,1,0
4.166228000,0,0,0,0,0,1,1,0
4.166234000,0,0,0,0,1,1,1,0
4.166330000,0,0,0,0,0,1,1,0
4.166336000,0,0,0,0,1,1,1,0
4.166358000,0,0,0,0,0,1,1,0
4.166386000,0,1,0,0,0,1,1,0
4.166490000,0,0,0,0,0,1,1,0
4.166528000,0,0,1,0,0,1,1,0
4.167074000,0,0,0,0,0,1,1,0
4.167078000,0,0,0,1,0,1,1,0
4.167120000,1,0,0,1,0,1,1,0
4.167126000,0,0,0,1,0,1,1,0
4.167156000,0,0,0,0,0,1,1,0
4.167162000,0,0,0,0,1,1,1,0
4.167258000,0,0,0,0,0,1,1,0
4.167264000,0,0,0,0,1,1,1,0
4.167286000,0,0,0,0,0,1,1,0
4.167314000,0,1,0,0,0,1,1,0
4.167418000,0,0,0,0,0,1,1,0
4.167456000,0,0,1,0,0,1,1,0
4.168000000,0,0,0,0,0,1,1,0
4.168006000,0,0,0,1,0,1,1,0
4.168096000,0,0,0,0,0,1,1,0
4.168102000,0,0,0,0,1,1,1,0
4.168200000,0,0,0,0,0,1,1,0
4.168204000,0,0,0,0,1,1,1,0
4.168226000,0,0,0,0,0,1,1,0
4.168254000,0,1,0,0,0,1,1,0
4.168358000,0,0,0,0,0,1,1,0
4.168396000,0,0,1,0,0,1,1,0
4.168942000,0,0,0,0,0,1,1,0
4.168948000,0,0,0,1,0,1,1,0
4.175682000,0,0,0,0,0,1,1,0
4.175688000,0,0,0,0,1,1,1,0
4.175786000,0,0,0,0,0,1,1,0
4.175790000,0,0,0,0,1,1,1,0
4.175812000,0,0,0,0,0,1,1,0
4.175840000,0,1,0,0,0,1,1,0
4.175944000,0,0,0,0,0,1,1,0
4.175982000,0,0,1,0,0,1,1,0
4.176528000,0,0,0,0,0,1,1,0
4.176532000,0,0,0,1,0,1,1,0
4.183414000,0,0,0,0,0,1,1,0
4.183420000,0,0,0,0,1,1,1,0
4.183516000,0,0,0,0,0,1,1,0
4.183522000,0,0,0,0,1,1,1,0
4.183544000,0,0,0,0,0,1,1,0
4.183572000,0,1,0,0,0,1,1,0
4.183676000,0,0,0,0,0,1,1,0
4.183714000,0,0,1,0,0,1,1,0
4.184260000,0,0,0,0,0,1,1,0
4.184264000,0,0,0,1,0,1,1,0
4.196730000,0,0,0,0,0,1,1,0
4.196736000,0,0,0,0,1,1,1,0
4.196834000,0,0,0,0,0,1,1,0
4.196838000,0,0,0,0,1,1,1,0
4.196860000,0,0,0,0,0,1,1,0
4.196888000,0,1,0,0,0,1,1,0
4.196992000,0,0,0,0,0,1,1,0
4.197030000,0,0,1,0,0,1,1,0
4.197574000,0,0,0,0,0,1,1,0
4.197580000,0,0,0,1,0,1,1,0
4.206266000,0,0,0,0,0,1,1,0
4.206272000,0,0,0,0,1,1,1,0
4.206368000,0,0,0,0,0,1,1,0
4.206374000,0,0,0,0,1,1,1,0
4.206396000,0,0,0,0,0,1,1,0
4.206424000,0,1,0,0,0,1,1,0
4.206528000,0,0,0,0,0,1,1,0
4.206566000,0,0,1,0,0,1,1,0
4.207112000,0,0,0,0,0,1,1,0
4.207116000,0,0,0,1,0,1,1,0
4.306444000,0,0,0,0,0,1,1,0
4.306450000,0,0,0,0,1,1,1,0
4.306546000,0,0,0,0,0,1,1,0
4.306552000,0,0,0,0,1,1,1,0
4.306574000,0,0,0,0,0,1,1,0
4.306602000,0,1,0,0,0,1,1,0
4.306706000,0,0,0,0,0,1,1,0
4.306744000,0,0,1,0,0,1,1,0
4.307288000,0,0,0,0,0,1,1,0
4.307294000,0,0,0,1,0,1,1,0
4.334656000,0,0,0,0,0,1,1,0
4.334662000,0,0,0,0,1,1,1,0
4.334760000,0,0,0,0,0,1,1,0
4.334764000,0,0,0,0,1,1,1,0
4.334786000,0,0,0,0,0,1,1,0
4.334814000,0,1,0,0,0,1,1,0
4.334918000,0,0,0,0,0,1,1,0
4.334956000,0,0,1,0,0,1,1,0
4.335502000,0,0,0,0,0,1,1,0
4.335506000,0,0,0,1,0,1,1,0
4.335550000,1,0,0,1,0,1,1,0
4.335554000,0,0,0,1,0,1,1,0
4.335584000,0,0,0,0,0,1,1,0
4.335590000,0,0,0,0,1,1,1,0
4.335686000,0,0,0,0,0,1,1,0
4.335692000,0,0,0,0,1,1,1,0
4.335714000,0,0,0,0,0,1,1,0
4.335742000,0,1,0,0,0,1,1,0
4.335846000,0,0,0,0,0,1,1,0
4.335884000,0,0,1,0,0,1,1,0
4.336428000,0,0,0,0,0,1,1,0
4.336434000,0,0,0,1,0,1,1,0
4.336526000,0,0,0,0,0,1,1,0
4.336532000,0,0,0,0,1,1,1,0
4.336628000,0,0,0,0,0,1,1,0
4.336632000,0,0,0,0,1,1,1,0
4.336656000,0,0,0,0,0,1,1,0
4.336684000,0,1,0,0,0,1,1,0
4.336786000,0,0,0,0,0,1,1,0
4.336826000,0,0,1,0,0,1,1,0
4.337370000,0,0,0,0,0,1,1,0
4.337376000,0,0,0,1,0,1,1,0
4.344104000,0,0,0,0,0,1,1,0
4.344110000,0,0,0,0,1,1,1,0
4.344208000,0,0,0,0,0,1,1,0
4.344212000,0,0,0,0,1,1,1,0
4.344234000,0,0,0,0,0,1,1,0
4.344262000,0,1,0,0,0,1,1,0
4.344366000,0,0,0,0,0,1,1,0
4.344404000,0,0,1,0,0,1,1,0
4.344948000,0,0,0,0,0,1,1,0
4.344954000,0,0,0,1,0,1,1,0
4.351836000,0,0,0,0,0,1,1,0
4.351842000,0,0,0,0,1,1,1,0
4.351938000,0,0,0,0,0,1,1,0
4.351944000,0,0,0,0,1,1,1,0
4.351966000,0,0,0,0,0,1,1,0
4.351994000,0,1,0,0,0,1,1,0
4.352098000,0,0,0,0,0,1,1,0
4.352136000,0,0,1,0,0,1,1,0
4.352682000,0,0,0,0,0,1,1,0
4.352686000,0,0,0,1,0,1,1,0
4.365150000,0,0,0,0,0,1,1,0
4.365156000,0,0,0,0,1,1,1,0
4.365252000,0,0,0,0,0,1,1,0
4.365258000,0,0,0,0,1,1,1,0
4.365280000,0,0,0,0,0,1,1,0
4.365308000,0,1,0,0,0,1,1,0
4.365412000,0,0,0,0,0,1,1,0
4.365450000,0,0,1,0,0,1,1,0
4.365994000,0,0,0,0,0,1,1,0
4.366000000,0,0,0,1,0,1,1,0
4.374686000,0,0,0,0,0,1,1,0
4.374692000,0,0,0,0,1,1,1,0
4.374788000,0,0,0,0,0,1,1,0
4.374794000,0,0,0,0,1,1,1,0
4.374816000,0,0,0,0,0,1,1,0
4.374844000,0,1,0,0,0,1,1,0
4.374948000,0,0,0,0,0,1,1,0
4.374986000,0,0,1,0,0,1,1,0
4.375530000,0,0,0,0,0,1,1,0
4.375536000,0,0,0,1,0,1,1,0
4.474958000,0,0,0,0,0,1,1,0
4.474964000,0,0,0,0,1,1,1,0
4.475062000,0,0,0,0,0,1,1,0
4.475066000,0,0,0,0,1,1,1,0
4.475088000,0,0,0,0,0,1,1,0
4.475116000,0,1,0,0,0,1,1,0
4.475220000,0,0,0,0,0,1,1,0
4.475258000,0,0,1,0,0,1,1,0
4.475802000,0,0,0,0,0,1,1,0
4.475808000,0,0,0,1,0,1,1,0
4.503152000,0,0,0,0,0,1,1,0
4.503158000,0,0,0,0,1,1,1,0
4.503254000,0,0,0,0,0,1,1,0
4.503260000,0,0,0,0,1,1,1,0
4.503282000,0,0,0,0,0,1,1,0
4.503310000,0,1,0,0,0,1,1,0
4.503414000,0,0,0,0,0,1,1,0
4.503452000,0,0,1,0,0,1,1,0
4.503996000,0,0,0,0,0,1,1,0
4.504002000,0,0,0,1,0,1,1,0
4.504044000,1,0,0,1,0,1,1,0
4.504050000,0,0,0,1,0,1,1,0
4.504080000,0,0,0,0,0,1,1,0
4.504086000,0,0,0,0,1,1,1,0
4.504182000,0,0,0,0,0,1,1,0
4.504186000,0,0,0,0,1,1,1,0
4.504210000,0,0,0,0,0,1,1,0
4.504238000,0,1,0,0,0,1,1,0
4.504340000,0,0,0,0,0,1,1,0
4.504380000,0,0,1,0,0,1,1,0
4.504924000,0,0,0,0,0,1,1,0
4.504928000,0,0,0,1,0,1,1,0
4.505020000,0,0,0,0,0,1,1,0
4.505026000,0,0,0,0,1,1,1,0
4.505122000,0,0,0,0,0,1,1,0
4.505128000,0,0,0,0,1,1,1,0
4.505150000,0,0,0,0,0,1,1,0
4.505178000,0,1,0,0,0,1,1,0
4.505282000,0,0,0,0,0,1,1,0
4.505320000,0,0,1,0,0,1,1,0
4.505866000,0,0,0,0,0,1,1,0
4.505870000,0,0,0,1,0,1,1,0
4.512604000,0,0,0,0,0,1,1,0
4.512610000,0,0,0,0,1,1,1,0
4.512708000,0,0,0,0,0,1,1,0
4.512712000,0,0,0,0,1,1,1,0
4.512734000,0,0,0,0,0,1,1,0
4.512762000,0,1,0,0,0,1,1,0
4.512866000,0,0,0,0,0,1,1,0
4.512904000,0,0,1,0,0,1,1,0
4.513450000,0,0,0,0,0,1,1,0
4.513454000,0,0,0,1,0,1,1,0
4.520336000,0,0,0,0,0,1,1,0
4.520342000,0,0,0,0,1,1,1,0
4.520438000,0,0,0,0,0,1,1,0
4.520444000,0,0,0,0,1,1,1,0
4.520466000,0,0,0,0,0,1,1,0
4.520494000,0,1,0,0,0,1,1,0
4.520598000,0,0,0,0,0,1,1,0
4.520636000,0,0,1,0,0,1,1,0
4.521182000,0,0,0,0,0,1,1,0
4.521186000,0,0,0,1,0,1,1,0
4.533640000,0,0,0,0,0,1,1,0
4.533646000,0,0,0,0,1,1,1,0
4.533744000,0,0,0,0,0,1,1,0
4.533748000,0,0,0,0,1,1,1,0
4.533770000,0,0,0,0,0,1,1,0
4.533798000,0,1,0,0,0,1,1,0
4.533902000,0,0,0,0,0,1,1,0
4.533940000,0,0,1,0,0,1,1,0
4.534484000,0,0,0,0,0,1,1,0
4.534490000,0,0,0,1,0,1,1,0
4.543174000,0,0,0,0,0,1,1,0
4.543180000,0,0,0,0,1,1,1,0
4.543276000,0,0,0,0,0,1,1,0
4.543280000,0,0,0,0,1,1,1,0
4.543302000,0,0,0,0,0,1,1,0
4.543332000,0,1,0,0,0,1,1,0
4.543434000,0,0,0,0,0,1,1,0
4.543474000,0,0,1,0,0,1,1,0
4.544018000,0,0,0,0,0,1,1,0
4.544024000,0,0,0,1,0,1,1,0
4.643348000,0,0,0,0,0,1,1,0
4.643354000,0,0,0,0,1,1,1,0
4.643450000,0,0,0,0,0,1,1,0
4.643454000,0,0,0,0,1,1,1,0
4.643478000,0,0,0,0,0,1,1,0
4.643506000,0,1,0,0,0,1,1,0
4.643608000,0,0,0,0,0,1,1,0
4.643648000,0,0,1,0,0,1,1,0
4.644192000,0,0,0,0,0,1,1,0
4.644196000,0,0,0,1,0,1,1,0
4.671444000,0,0,0,0,0,1,1,0
4.671450000,0,0,0,0,1,1,1,0
4.671546000,0,0,0,0,0,1,1,0
4.671550000,0,0,0,0,1,1,1,0
4.671574000,0,0,0,0,0,1,1,0
4.671602000,0,1,0,0,0,1,1,0
4.671704000,0,0,0,0,0,1,1,0
4.671744000,0,0,1,0,0,1,1,0
4.672288000,0,0,0,0,0,1,1,0
4.672294000,0,0,0,1,0,1,1,0
4.672336000,1,0,0,1,0,1,1,0
4.672340000,0,0,0,1,0,1,1,0
4.672372000,0,0,0,0,0,1,1,0
4.672378000,0,0,0,0,1,1,1,0
4.672474000,0,0,0,0,0,1,1,0
4.672478000,0,0,0,0,1,1,1,0
4.672500000,0,0,0,0,0,1,1,0
4.672530000,0,1,0,0,0,1,1,0
4.672632000,0,0,0,0,0,1,1,0
4.672670000,0,0,1,0,0,1,1,0
4.673216000,0,0,0,0,0,1,1,0
4.673220000,0,0,0,1,0,1,1,0
4.673312000,0,0,0,0,0,1,1,0
4.673318000,0,0,0,0,1,1,1,0
4.673414000,0,0,0,0,0,1,1,0
4.673420000,0,0,0,0,1,1,1,0
4.673442000,0,0,0,0,0,1,1,0
4.673470000,0,1,0,0,0,1,1,0
4.673574000,0,0,0,0,0,1,1,0
4.673612000,0,0,1,0,0,1,1,0
4.674158000,0,0,0,0,0,1,1,0
4.674162000,0,0,0,1,0,1,1,0
4.680898000,0,0,0,0,0,1,1,0
4.680904000,0,0,0,0,1,1,1,0
4.681000000,0,0,0,0,0,1,1,0
4.681006000,0,0,0,0,1,1,1,0
4.681028000,0,0,0,0,0,1,1,0
4.681056000,0,1,0,0,0,1,1,0
4.681160000,0,0,0,0,0,1,1,0
4.681198000,0,0,1,0,0,1,1,0
4.681742000,0,0,0,0,0,1,1,0
4.681748000,0,0,0,1,0,1,1,0
4.688628000,0,0,0,0,0,1,1,0
4.688634000,0,0,0,0,1,1,1,0
4.688732000,0,0,0,0,0,1,1,0
4.688736000,0,0,0,0,1,1,1,0
4.688758000,0,0,0,0,0,1,1,0
4.688786000,0,1,0,0,0,1,1,0
4.688890000,0,0,0,0,0,1,1,0
4.688928000,0,0,1,0,0,1,1,0
4.689474000,0,0,0,0,0,1,1,0
4.689480000,0,0,0,1,0,1,1,0
4.701944000,0,0,0,0,0,1,1,0
4.701950000,0,0,0,0,1,1,1,0
4.702048000,0,0,0,0,0,1,1,0
4.702052000,0,0,0,0,1,1,1,0
4.702074000,0,0,0,0,0,1,1,0
4.702102000,0,1,0,0,0,1,1,0
4.702206000,0,0,0,0,0,1,1,0
4.702244000,0,0,1,0,0,1,1,0
4.702790000,0,0,0,0,0,1,1,0
4.702794000,0,0,0,1,0,1,1,0
4.711480000,0,0,0,0,0,1,1,0
4.711486000,0,0,0,0,1,1,1,0
4.711582000,0,0,0,0,0,1,1,0
4.711588000,0,0,0,0,1,1,1,0
4.711610000,0,0,0,0,0,1,1,0
4.711638000,0,1,0,0,0,1,1,0
4.711742000,0,0,0,0,0,1,1,0
4.711780000,0,0,1,0,0,1,1,0
4.712326000,0,0,0,0,0,1,1,0
4.712330000,0,0,0,1,0,1,1,0
4.811654000,0,0,0,0,0,1,1,0
4.811660000,0,0,0,0,1,1,1,0
4.811756000,0,0,0,0,0,1,1,0
4.811762000,0,0,0,0,1,1,1,0
4.811784000,0,0,0,0,0,1,1,0
4.811812000,0,1,0,0,0,1,1,0
4.811916000,0,0,0,0,0,1,1,0
4.811954000,0,0,1,0,0,1,1,0
4.812498000,0,0,0,0,0,1,1,0
4.812504000,0,0,0,1,0,1,1,0
4.839866000,0,0,0,0,0,1,1,0
4.839872000,0,0,0,0,1,1,1,0
4.839968000,0,0,0,0,0,1,1,0
4.839974000,0,0,0,0,1,1,1,0
4.839996000,0,0,0,0,0,1,1,0
4.840024000,0,1,0,0,0,1,1,0
4.840128000,0,0,0,0,0,1,1,0
4.840166000,0,0,1,0,0,1,1,0
4.840710000,0,0,0,0,0,1,1,0
4.840716000,0,0,0,1,0,1,1,0
4.840758000,1,0,0,1,0,1,1,0
4.840764000,0,0,0,1,0,1,1,0
4.840794000,0,0,0,0,0,1,1,0
4.840800000,0,0,0,0,1,1,1,0
4.840896000,0,0,0,0,0,1,1,0
4.840902000,0,0,0,0,1,1,1,0
4.840924000,0,0,0,0,0,1,1,0
4.840952000,0,1,0,0,0,1,1,0
4.841056000,0,0,0,0,0,1,1,0
4.841094000,0,0,1,0,0,1,1,0
4.841638000,0,0,0,0,0,1,1,0
4.841642000,0,0,0,1,0,1,1,0
4.841734000,0,0,0,0,0,1,1,0
4.841740000,0,0,0,0,1,1,1,0
4.841836000,0,0,0,0,0,1,1,0
4.841842000,0,0,0,0,1,1,1,0
4.841864000,0,0,0,0,0,1,1,0
4.841892000,0,1,0,0,0,1,1,0
4.841996000,0,0,0,0,0,1,1,0
4.842034000,0,0,1,0,0,1,1,0
4.842580000,0,0,0,0,0,1,1,0
4.842584000,0,0,0,1,0,1,1,0
4.849316000,0,0,0,0,0,1,1,0
