Time [s],Channel 0,Channel 1,Channel 2,Channel 3,Channel 4,Channel 5,Channel 6,Channel 7
0.000000000,0,0,1,0,0,1,0,0
0.000002000,1,1,1,1,1,1,0,0
10.729400000,1,1,1,1,1,1,1,0
10.731052000,1,0,0,0,0,1,1,0
10.731064000,0,0,0,0,0,1,1,0
10.731180000,0,0,1,0,0,1,1,0
10.737010000,0,0,0,0,0,1,1,0
10.737014000,0,0,0,1,0,1,1,0
10.737178000,0,0,0,0,0,1,1,0
10.737184000,0,0,0,0,1,1,1,0
10.737280000,0,0,0,0,0,1,1,0
10.737286000,0,0,0,0,1,1,1,0
10.737308000,0,0,0,0,0,1,1,0
10.737336000,0,1,0,0,0,1,1,0
10.737340000,0,0,0,0,0,1,1,0
10.737354000,0,1,0,0,0,1,1,0
10.737456000,0,0,0,0,0,1,1,0
10.737494000,0,0,1,0,0,1,1,0
10.743324000,0,0,0,0,0,1,1,0
10.743328000,0,0,0,1,0,1,1,0
10.743452000,0,0,0,0,0,1,1,0
10.743458000,0,0,0,0,1,1,1,0
10.743554000,0,0,0,0,0,1,1,0
10.743560000,0,0,0,0,1,1,1,0
10.743582000,0,0,0,0,0,1,1,0
10.743610000,0,1,0,0,0,1,1,0
10.743714000,0,0,0,0,0,1,1,0
10.743752000,0,0,1,0,0,1,1,0
10.749582000,0,0,0,0,0,1,1,0
10.749586000,0,0,0,1,0,1,1,0
10.749916000,0,0,0,0,0,1,1,0
10.749922000,0,0,0,0,1,1,1,0
10.750020000,0,0,0,0,0,1,1,0
10.750024000,0,0,0,0,1,1,1,0
10.750046000,0,0,0,0,0,1,1,0
10.750074000,0,1,0,0,0,1,1,0
10.750178000,0,0,0,0,0,1,1,0
10.750216000,0,0,1,0,0,1,1,0
10.756046000,0,0,0,0,0,1,1,0
10.756050000,0,0,0,1,0,1,1,0
10.756212000,0,0,0,0,0,1,1,0
10.756218000,0,0,0,0,1,1,1,0
10.756314000,0,0,0,0,0,1,1,0
10.756320000,0,0,0,0,1,1,1,0
10.756342000,0,0,0,0,0,1,1,0
10.756370000,0,1,0,0,0,1,1,0
10.756474000,0,0,0,0,0,1,1,0
10.756512000,0,0,1,0,0,1,1,0
10.761398000,0,0,1,0,0,1,0,0
10.761402000,1,1,1,1,1,1,0,0
11.315392000,1,1,1,1,1,1,1,0
11.317044000,1,0,0,0,0,1,1,0
11.317056000,0,0,0,0,0,1,1,0
11.317172000,0,0,1,0,0,1,1,0
11.323002000,0,0,0,0,0,1,1,0
11.323008000,0,0,0,1,0,1,1,0
11.323132000,0,0,0,0,0,1,1,0
11.323138000,0,0,0,0,1,1,1,0
11.323234000,0,0,0,0,0,1,1,0
11.323240000,0,0,0,0,1,1,1,0
11.323262000,0,0,0,0,0,1,1,0
11.323290000,0,1,0,0,0,1,1,0
11.323294000,0,0,0,0,0,1,1,0
11.323306000,0,1,0,0,0,1,1,0
11.323410000,0,0,0,0,0,1,1,0
11.323448000,0,0,1,0,0,1,1,0
11.329278000,0,0,0,0,0,1,1,0
11.329282000,0,0,0,1,0,1,1,0
11.329612000,0,0,0,0,0,1,1,0
11.329618000,0,0,0,0,1,1,1,0
11.329714000,0,0,0,0,0,1,1,0
11.329720000,0,0,0,0,1,1,1,0
11.329742000,0,0,0,0,0,1,1,0
11.329770000,0,1,0,0,0,1,1,0
11.329874000,0,0,0,0,0,1,1,0
11.329912000,0,0,1,0,0,1,1,0
11.335742000,0,0,0,0,0,1,1,0
11.335746000,0,0,0,1,0,1,1,0
11.335910000,0,0,0,0,0,1,1,0
11.335916000,0,0,0,0,1,1,1,0
11.336012000,0,0,0,0,0,1,1,0
11.336016000,0,0,0,0,1,1,1,0
11.336040000,0,0,0,0,0,1,1,0
11.336068000,0,1,0,0,0,1,1,0
11.336170000,0,0,0,0,0,1,1,0
11.336210000,0,0,1,0,0,1,1,0
11.342038000,0,0,0,0,0,1,1,0
11.342044000,0,0,0,1,0,1,1,0
11.342166000,0,0,0,0,0,1,1,0
11.342172000,0,0,0,0,1,1,1,0
11.342270000,0,0,0,0,0,1,1,0
11.342274000,0,0,0,0,1,1,1,0
11.342296000,0,0,0,0,0,1,1,0
11.342324000,0,1,0,0,0,1,1,0
11.342428000,0,0,0,0,0,1,1,0
11.342466000,0,0,1,0,0,1,1,0
11.348296000,0,0,0,0,0,1,1,0
11.348302000,0,0,0,1,0,1,1,0
11.348632000,0,0,0,0,0,1,1,0
11.348638000,0,0,0,0,1,1,1,0
11.348734000,0,0,0,0,0,1,1,0
11.348740000,0,0,0,0,1,1,1,0
11.348762000,0,0,0,0,0,1,1,0
11.348790000,0,1,0,0,0,1,1,0
11.348894000,0,0,0,0,0,1,1,0
11.348932000,0,0,1,0,0,1,1,0
11.354760000,0,0,0,0,0,1,1,0
11.354766000,0,0,0,1,0,1,1,0
11.354928000,0,0,0,0,0,1,1,0
11.354934000,0,0,0,0,1,1,1,0
11.355030000,0,0,0,0,0,1,1,0
11.355034000,0,0,0,0,1,1,1,0
11.355058000,0,0,0,0,0,1,1,0
11.355086000,0,1,0,0,0,1,1,0
11.355188000,0,0,0,0,0,1,1,0
11.355228000,0,0,1,0,0,1,1,0
11.361056000,0,0,0,0,0,1,1,0
11.361062000,0,0,0,1,0,1,1,0
11.361186000,0,0,0,0,0,1,1,0
11.361192000,0,0,0,0,1,1,1,0
11.361288000,0,0,0,0,0,1,1,0
11.361294000,0,0,0,0,1,1,1,0
11.361316000,0,0,0,0,0,1,1,0
11.361344000,0,1,0,0,0,1,1,0
11.361448000,0,0,0,0,0,1,1,0
11.361486000,0,0,1,0,0,1,1,0
11.367314000,0,0,0,0,0,1,1,0
11.367320000,0,0,0,1,0,1,1,0
11.367648000,0,0,0,0,0,1,1,0
11.367654000,0,0,0,0,1,1,1,0
11.367750000,0,0,0,0,0,1,1,0
11.367756000,0,0,0,0,1,1,1,0
11.367778000,0,0,0,0,0,1,1,0
11.367806000,0,1,0,0,0,1,1,0
11.367910000,0,0,0,0,0,1,1,0
11.367948000,0,0,1,0,0,1,1,0
11.373778000,0,0,0,0,0,1,1,0
11.373782000,0,0,0,1,0,1,1,0
11.373946000,0,0,0,0,0,1,1,0
11.373952000,0,0,0,0,1,1,1,0
11.374048000,0,0,0,0,0,1,1,0
11.374054000,0,0,0,0,1,1,1,0
11.374076000,0,0,0,0,0,1,1,0
11.374104000,0,1,0,0,0,1,1,0
11.374208000,0,0,0,0,0,1,1,0
11.374246000,0,0,1,0,0,1,1,0
11.380074000,0,0,0,0,0,1,1,0
11.380080000,0,0,0,1,0,1,1,0
11.380204000,0,0,0,0,0,1,1,0
11.380210000,0,0,0,0,1,1,1,0
11.380306000,0,0,0,0,0,1,1,0
11.380312000,0,0,0,0,1,1,1,0
11.380334000,0,0,0,0,0,1,1,0
11.380362000,0,1,0,0,0,1,1,0
11.380466000,0,0,0,0,0,1,1,0
11.380504000,0,0,1,0,0,1,1,0
11.386334000,0,0,0,0,0,1,1,0
11.386338000,0,0,0,1,0,1,1,0
11.386668000,0,0,0,0,0,1,1,0
11.386674000,0,0,0,0,1,1,1,0
11.386770000,0,0,0,0,0,1,1,0
11.386776000,0,0,0,0,1,1,1,0
11.386798000,0,0,0,0,0,1,1,0
11.386826000,0,1,0,0,0,1,1,0
11.386930000,0,0,0,0,0,1,1,0
11.386968000,0,0,1,0,0,1,1,0
11.392796000,0,0,0,0,0,1,1,0
11.392802000,0,0,0,1,0,1,1,0
11.392964000,0,0,0,0,0,1,1,0
11.392970000,0,0,0,0,1,1,1,0
11.393066000,0,0,0,0,0,1,1,0
11.393072000,0,0,0,0,1,1,1,0
11.393094000,0,0,0,0,0,1,1,0
11.393122000,0,1,0,0,0,1,1,0
11.393226000,0,0,0,0,0,1,1,0
11.393264000,0,0,1,0,0,1,1,0
11.399094000,0,0,0,0,0,1,1,0
11.399098000,0,0,0,1,0,1,1,0
11.399222000,0,0,0,0,0,1,1,0
11.399228000,0,0,0,0,1,1,1,0
11.399326000,0,0,0,0,0,1,1,0
11.399330000,0,0,0,0,1,1,1,0
11.399352000,0,0,0,0,0,1,1,0
11.399380000,0,1,0,0,0,1,1,0
11.399484000,0,0,0,0,0,1,1,0
11.399522000,0,0,1,0,0,1,1,0
11.405352000,0,0,0,0,0,1,1,0
11.405356000,0,0,0,1,0,1,1,0
11.405560000,0,0,0,0,0,1,1,0
11.405566000,0,0,0,0,1,1,1,0
11.405662000,0,0,0,0,0,1,1,0
11.405668000,0,0,0,0,1,1,1,0
11.405690000,0,0,0,0,0,1,1,0
11.405718000,0,1,0,0,0,1,1,0
11.405820000,0,0,0,0,0,1,1,0
11.405860000,0,0,1,0,0,1,1,0
11.411688000,0,0,0,0,0,1,1,0
11.411694000,0,0,0,1,0,1,1,0
11.411816000,0,0,0,0,0,1,1,0
11.411822000,0,0,0,0,1,1,1,0
11.411918000,0,0,0,0,0,1,1,0
11.411924000,0,0,0,0,1,1,1,0
11.411946000,0,0,0,0,0,1,1,0
11.411974000,0,1,0,0,0,1,1,0
11.412078000,0,0,0,0,0,1,1,0
11.412116000,0,0,1,0,0,1,1,0
11.417944000,0,0,0,0,0,1,1,0
11.417948000,0,0,0,1,0,1,1,0
11.418046000,0,0,0,0,0,1,1,0
11.418052000,0,0,0,0,1,1,1,0
11.418148000,0,0,0,0,0,1,1,0
11.418154000,0,0,0,0,1,1,1,0
11.418176000,0,0,0,0,0,1,1,0
11.418204000,0,1,0,0,0,1,1,0
11.418308000,0,0,0,0,0,1,1,0
11.418346000,0,0,1,0,0,1,1,0
11.424176000,0,0,0,0,0,1,1,0
11.424180000,0,0,0,1,0,1,1,0
11.424282000,0,0,0,0,0,1,1,0
11.424288000,0,0,0,0,1,1,1,0
11.424386000,0,0,0,0,0,1,1,0
11.424390000,0,0,0,0,1,1,1,0
11.424412000,0,0,0,0,0,1,1,0
11.424440000,0,1,0,0,0,1,1,0
11.424544000,0,0,0,0,0,1,1,0
11.424582000,0,0,1,0,0,1,1,0
11.430412000,0,0,0,0,0,1,1,0
11.430416000,0,0,0,1,0,1,1,0
11.430570000,0,0,0,0,0,1,1,0
11.430576000,0,0,0,0,1,1,1,0
11.430672000,0,0,0,0,0,1,1,0
11.430678000,0,0,0,0,1,1,1,0
11.430700000,0,0,0,0,0,1,1,0
11.430728000,0,1,0,0,0,1,1,0
11.430832000,0,0,0,0,0,1,1,0
11.430870000,0,0,1,0,0,1,1,0
11.436700000,0,0,0,0,0,1,1,0
11.436706000,0,0,0,1,0,1,1,0
11.436868000,0,0,0,0,0,1,1,0
11.436874000,0,0,0,0,1,1,1,0
11.436970000,0,0,0,0,0,1,1,0
11.436976000,0,0,0,0,1,1,1,0
11.436998000,0,0,0,0,0,1,1,0
11.437026000,0,1,0,0,0,1,1,0
11.437130000,0,0,0,0,0,1,1,0
11.437168000,0,0,1,0,0,1,1,0
11.442996000,0,0,0,0,0,1,1,0
11.443002000,0,0,0,1,0,1,1,0
11.443132000,0,0,0,0,0,1,1,0
11.443138000,0,0,0,0,1,1,1,0
11.443236000,0,0,0,0,0,1,1,0
11.443240000,0,0,0,0,1,1,1,0
11.443262000,0,0,0,0,0,1,1,0
11.443290000,0,1,0,0,0,1,1,0
11.443394000,0,0,0,0,0,1,1,0
11.443432000,0,0,1,0,0,1,1,0
11.449262000,0,0,0,0,0,1,1,0
11.449268000,0,0,0,1,0,1,1,0
11.449398000,0,0,0,0,0,1,1,0
11.449404000,0,0,0,0,1,1,1,0
11.449500000,0,0,0,0,0,1,1,0
11.449506000,0,0,0,0,1,1,1,0
11.449528000,0,0,0,0,0,1,1,0
11.449556000,0,1,0,0,0,1,1,0
11.449660000,0,0,0,0,0,1,1,0
11.449698000,0,0,1,0,0,1,1,0
11.455526000,0,0,0,0,0,1,1,0
11.455532000,0,0,0,1,0,1,1,0
11.455662000,0,0,0,0,0,1,1,0
11.455668000,0,0,0,0,1,1,1,0
11.455764000,0,0,0,0,0,1,1,0
11.455770000,0,0,0,0,1,1,1,0
11.455792000,0,0,0,0,0,1,1,0
11.455820000,0,1,0,0,0,1,1,0
11.455924000,0,0,0,0,0,1,1,0
11.455962000,0,0,1,0,0,1,1,0
11.461790000,0,0,0,0,0,1,1,0
11.461796000,0,0,0,1,0,1,1,0
11.461920000,0,0,0,0,0,1,1,0
11.461926000,0,0,0,0,1,1,1,0
11.462022000,0,0,0,0,0,1,1,0
11.462028000,0,0,0,0,1,1,1,0
11.462050000,0,0,0,0,0,1,1,0
11.462078000,0,1,0,0,0,1,1,0
11.462182000,0,0,0,0,0,1,1,0
11.462220000,0,0,1,0,0,1,1,0
11.468048000,0,0,0,0,0,1,1,0
11.468054000,0,0,0,1,0,1,1,0
11.468208000,0,0,0,0,0,1,1,0
11.468214000,0,0,0,0,1,1,1,0
11.468310000,0,0,0,0,0,1,1,0
11.468314000,0,0,0,0,1,1,1,0
11.468336000,0,0,0,0,0,1,1,0
11.468366000,0,1,0,0,0,1,1,0
11.468468000,0,0,0,0,0,1,1,0
11.468506000,0,0,1,0,0,1,1,0
11.474336000,0,0,0,0,0,1,1,0
11.474342000,0,0,0,1,0,1,1,0
11.474506000,0,0,0,0,0,1,1,0
11.474512000,0,0,0,0,1,1,1,0
11.474608000,0,0,0,0,0,1,1,0
11.474614000,0,0,0,0,1,1,1,0
11.474636000,0,0,0,0,0,1,1,0
11.474664000,0,1,0,0,0,1,1,0
11.474768000,0,0,0,0,0,1,1,0
11.474806000,0,0,1,0,0,1,1,0
11.480634000,0,0,0,0,0,1,1,0
11.480640000,0,0,0,1,0,1,1,0
11.480762000,0,0,0,0,0,1,1,0
11.480768000,0,0,0,0,1,1,1,0
11.480866000,0,0,0,0,0,1,1,0
11.480870000,0,0,0,0,1,1,1,0
11.480892000,0,0,0,0,0,1,1,0
11.480920000,0,1,0,0,0,1,1,0
11.481024000,0,0,0,0,0,1,1,0
11.481062000,0,0,1,0,0,1,1,0
11.486892000,0,0,0,0,0,1,1,0
11.486898000,0,0,0,1,0,1,1,0
11.487052000,0,0,0,0,0,1,1,0
11.487058000,0,0,0,0,1,1,1,0
11.487154000,0,0,0,0,0,1,1,0
11.487160000,0,0,0,0,1,1,1,0
11.487182000,0,0,0,0,0,1,1,0
11.487210000,0,1,0,0,0,1,1,0
11.487314000,0,0,0,0,0,1,1,0
11.487352000,0,0,1,0,0,1,1,0
11.493180000,0,0,0,0,0,1,1,0
11.493186000,0,0,0,1,0,1,1,0
11.493348000,0,0,0,0,0,1,1,0
11.493354000,0,0,0,0,1,1,1,0
11.493450000,0,0,0,0,0,1,1,0
11.493456000,0,0,0,0,1,1,1,0
11.493478000,0,0,0,0,0,1,1,0
11.493506000,0,1,0,0,0,1,1,0
11.493610000,0,0,0,0,0,1,1,0
11.493648000,0,0,1,0,0,1,1,0
11.499478000,0,0,0,0,0,1,1,0
11.499482000,0,0,0,1,0,1,1,0
11.499606000,0,0,0,0,0,1,1,0
11.499612000,0,0,0,0,1,1,1,0
11.499708000,0,0,0,0,0,1,1,0
11.499714000,0,0,0,0,1,1,1,0
11.499736000,0,0,0,0,0,1,1,0
11.499764000,0,1,0,0,0,1,1,0
11.499868000,0,0,0,0,0,1,1,0
11.499906000,0,0,1,0,0,1,1,0
11.505734000,0,0,0,0,0,1,1,0
11.505740000,0,0,0,1,0,1,1,0
11.505894000,0,0,0,0,0,1,1,0
11.505900000,0,0,0,0,1,1,1,0
11.505996000,0,0,0,0,0,1,1,0
11.506002000,0,0,0,0,1,1,1,0
11.506024000,0,0,0,0,0,1,1,0
11.506052000,0,1,0,0,0,1,1,0
11.506156000,0,0,0,0,0,1,1,0
11.506194000,0,0,1,0,0,1,1,0
11.512024000,0,0,0,0,0,1,1,0
11.512028000,0,0,0,1,0,1,1,0
11.512192000,0,0,0,0,0,1,1,0
11.512198000,0,0,0,0,1,1,1,0
11.512294000,0,0,0,0,0,1,1,0
11.512300000,0,0,0,0,1,1,1,0
11.512322000,0,0,0,0,0,1,1,0
11.512350000,0,1,0,0,0,1,1,0
11.512454000,0,0,0,0,0,1,1,0
11.512492000,0,0,1,0,0,1,1,0
11.518320000,0,0,0,0,0,1,1,0
11.518326000,0,0,0,1,0,1,1,0
11.518450000,0,0,0,0,0,1,1,0
11.518456000,0,0,0,0,1,1,1,0
11.518552000,0,0,0,0,0,1,1,0
11.518558000,0,0,0,0,1,1,1,0
11.518580000,0,0,0,0,0,1,1,0
11.518608000,0,1,0,0,0,1,1,0
11.518712000,0,0,0,0,0,1,1,0
11.518750000,0,0,1,0,0,1,1,0
11.524578000,0,0,0,0,0,1,1,0
11.524584000,0,0,0,1,0,1,1,0
11.524738000,0,0,0,0,0,1,1,0
11.524744000,0,0,0,0,1,1,1,0
11.524842000,0,0,0,0,0,1,1,0
11.524846000,0,0,0,0,1,1,1,0
11.524868000,0,0,0,0,0,1,1,0
11.524896000,0,1,0,0,0,1,1,0
11.525000000,0,0,0,0,0,1,1,0
11.525038000,0,0,1,0,0,1,1,0
11.530868000,0,0,0,0,0,1,1,0
11.530872000,0,0,0,1,0,1,1,0
11.531034000,0,0,0,0,0,1,1,0
11.531040000,0,0,0,0,1,1,1,0
11.531138000,0,0,0,0,0,1,1,0
11.531142000,0,0,0,0,1,1,1,0
11.531164000,0,0,0,0,0,1,1,0
11.531192000,0,1,0,0,0,1,1,0
11.531296000,0,0,0,0,0,1,1,0
11.531334000,0,0,1,0,0,1,1,0
11.537164000,0,0,0,0,0,1,1,0
11.537168000,0,0,0,1,0,1,1,0
11.537292000,0,0,0,0,0,1,1,0
11.537298000,0,0,0,0,1,1,1,0
11.537396000,0,0,0,0,0,1,1,0
11.537400000,0,0,0,0,1,1,1,0
11.537422000,0,0,0,0,0,1,1,0
11.537450000,0,1,0,0,0,1,1,0
11.537554000,0,0,0,0,0,1,1,0
11.537592000,0,0,1,0,0,1,1,0
11.543422000,0,0,0,0,0,1,1,0
11.543426000,0,0,0,1,0,1,1,0
11.543580000,0,0,0,0,0,1,1,0
11.543586000,0,0,0,0,1,1,1,0
11.543682000,0,0,0,0,0,1,1,0
11.543688000,0,0,0,0,1,1,1,0
11.543710000,0,0,0,0,0,1,1,0
11.543738000,0,1,0,0,0,1,1,0
11.543842000,0,0,0,0,0,1,1,0
11.543880000,0,0,1,0,0,1,1,0
11.549710000,0,0,0,0,0,1,1,0
11.549714000,0,0,0,1,0,1,1,0
11.549878000,0,0,0,0,0,1,1,0
11.549884000,0,0,0,0,1,1,1,0
11.549982000,0,0,0,0,0,1,1,0
11.549986000,0,0,0,0,1,1,1,0
11.550008000,0,0,0,0,0,1,1,0
11.550036000,0,1,0,0,0,1,1,0
11.550140000,0,0,0,0,0,1,1,0
11.550178000,0,0,1,0,0,1,1,0
11.556008000,0,0,0,0,0,1,1,0
11.556012000,0,0,0,1,0,1,1,0
11.556136000,0,0,0,0,0,1,1,0
11.556142000,0,0,0,0,1,1,1,0
11.556238000,0,0,0,0,0,1,1,0
11.556244000,0,0,0,0,1,1,1,0
11.556266000,0,0,0,0,0,1,1,0
11.556294000,0,1,0,0,0,1,1,0
11.556398000,0,0,0,0,0,1,1,0
11.556436000,0,0,1,0,0,1,1,0
11.562266000,0,0,0,0,0,1,1,0
11.562270000,0,0,0,1,0,1,1,0
11.562426000,0,0,0,0,0,1,1,0
11.562432000,0,0,0,0,1,1,1,0
11.562528000,0,0,0,0,0,1,1,0
11.562534000,0,0,0,0,1,1,1,0
11.562556000,0,0,0,0,0,1,1,0
11.562584000,0,1,0,0,0,1,1,0
11.562688000,0,0,0,0,0,1,1,0
11.562726000,0,0,1,0,0,1,1,0
11.568554000,0,0,0,0,0,1,1,0
11.568560000,0,0,0,1,0,1,1,0
11.568722000,0,0,0,0,0,1,1,0
11.568728000,0,0,0,0,1,1,1,0
11.568824000,0,0,0,0,0,1,1,0
11.568830000,0,0,0,0,1,1,1,0
11.568852000,0,0,0,0,0,1,1,0
11.568880000,0,1,0,0,0,1,1,0
11.568984000,0,0,0,0,0,1,1,0
11.569022000,0,0,1,0,0,1,1,0
11.574852000,0,0,0,0,0,1,1,0
11.574856000,0,0,0,1,0,1,1,0
11.574980000,0,0,0,0,0,1,1,0
11.574986000,0,0,0,0,1,1,1,0
11.575082000,0,0,0,0,0,1,1,0
11.575088000,0,0,0,0,1,1,1,0
11.575110000,0,0,0,0,0,1,1,0
11.575138000,0,1,0,0,0,1,1,0
11.575242000,0,0,0,0,0,1,1,0
11.575280000,0,0,1,0,0,1,1,0
11.581108000,0,0,0,0,0,1,1,0
11.581114000,0,0,0,1,0,1,1,0
11.581268000,0,0,0,0,0,1,1,0
11.581274000,0,0,0,0,1,1,1,0
11.581370000,0,0,0,0,0,1,1,0
11.581376000,0,0,0,0,1,1,1,0
11.581398000,0,0,0,0,0,1,1,0
11.581426000,0,1,0,0,0,1,1,0
11.581528000,0,0,0,0,0,1,1,0
11.581568000,0,0,1,0,0,1,1,0
11.587396000,0,0,0,0,0,1,1,0
11.587402000,0,0,0,1,0,1,1,0
11.587566000,0,0,0,0,0,1,1,0
11.587572000,0,0,0,0,1,1,1,0
11.587668000,0,0,0,0,0,1,1,0
11.587674000,0,0,0,0,1,1,1,0
11.587696000,0,0,0,0,0,1,1,0
11.587724000,0,1,0,0,0,1,1,0
11.587828000,0,0,0,0,0,1,1,0
11.587866000,0,0,1,0,0,1,1,0
11.593694000,0,0,0,0,0,1,1,0
11.593700000,0,0,0,1,0,1,1,0
11.593824000,0,0,0,0,0,1,1,0
11.593830000,0,0,0,0,1,1,1,0
11.593926000,0,0,0,0,0,1,1,0
11.593930000,0,0,0,0,1,1,1,0
11.593952000,0,0,0,0,0,1,1,0
11.593982000,0,1,0,0,0,1,1,0
11.594084000,0,0,0,0,0,1,1,0
11.594122000,0,0,1,0,0,1,1,0
11.599952000,0,0,0,0,0,1,1,0
11.599958000,0,0,0,1,0,1,1,0
11.600112000,0,0,0,0,0,1,1,0
11.600118000,0,0,0,0,1,1,1,0
11.600216000,0,0,0,0,0,1,1,0
11.600220000,0,0,0,0,1,1,1,0
11.600242000,0,0,0,0,0,1,1,0
11.600270000,0,1,0,0,0,1,1,0
11.600374000,0,0,0,0,0,1,1,0
11.600412000,0,0,1,0,0,1,1,0
11.606240000,0,0,0,0,0,1,1,0
11.606246000,0,0,0,1,0,1,1,0
11.606408000,0,0,0,0,0,1,1,0
11.606414000,0,0,0,0,1,1,1,0
11.606510000,0,0,0,0,0,1,1,0
11.606516000,0,0,0,0,1,1,1,0
11.606538000,0,0,0,0,0,1,1,0
11.606566000,0,1,0,0,0,1,1,0
11.606670000,0,0,0,0,0,1,1,0
11.606708000,0,0,1,0,0,1,1,0
11.612538000,0,0,0,0,0,1,1,0
11.612542000,0,0,0,1,0,1,1,0
11.612666000,0,0,0,0,0,1,1,0
11.612672000,0,0,0,0,1,1,1,0
11.612770000,0,0,0,0,0,1,1,0
11.612774000,0,0,0,0,1,1,1,0
11.612796000,0,0,0,0,0,1,1,0
11.612824000,0,1,0,0,0,1,1,0
11.612928000,0,0,0,0,0,1,1,0
11.612966000,0,0,1,0,0,1,1,0
11.618794000,0,0,0,0,0,1,1,0
11.618800000,0,0,0,1,0,1,1,0
11.618954000,0,0,0,0,0,1,1,0
11.618960000,0,0,0,0,1,1,1,0
11.619056000,0,0,0,0,0,1,1,0
11.619062000,0,0,0,0,1,1,1,0
11.619084000,0,0,0,0,0,1,1,0
11.619112000,0,1,0,0,0,1,1,0
11.619216000,0,0,0,0,0,1,1,0
11.619254000,0,0,1,0,0,1,1,0
11.625084000,0,0,0,0,0,1,1,0
11.625088000,0,0,0,1,0,1,1,0
11.625252000,0,0,0,0,0,1,1,0
11.625258000,0,0,0,0,1,1,1,0
11.625356000,0,0,0,0,0,1,1,0
11.625360000,0,0,0,0,1,1,1,0
11.625382000,0,0,0,0,0,1,1,0
11.625410000,0,1,0,0,0,1,1,0
11.625514000,0,0,0,0,0,1,1,0
11.625552000,0,0,1,0,0,1,1,0
11.631382000,0,0,0,0,0,1,1,0
11.631386000,0,0,0,1,0,1,1,0
11.631510000,0,0,0,0,0,1,1,0
11.631516000,0,0,0,0,1,1,1,0
11.631612000,0,0,0,0,0,1,1,0
11.631618000,0,0,0,0,1,1,1,0
11.631640000,0,0,0,0,0,1,1,0
11.631668000,0,1,0,0,0,1,1,0
11.631772000,0,0,0,0,0,1,1,0
11.631810000,0,0,1,0,0,1,1,0
11.637640000,0,0,0,0,0,1,1,0
11.637644000,0,0,0,1,0,1,1,0
11.637800000,0,0,0,0,0,1,1,0
11.637806000,0,0,0,0,1,1,1,0
11.637902000,0,0,0,0,0,1,1,0
11.637908000,0,0,0,0,1,1,1,0
11.637930000,0,0,0,0,0,1,1,0
11.637958000,0,1,0,0,0,1,1,0
11.638062000,0,0,0,0,0,1,1,0
11.638100000,0,0,1,0,0,1,1,0
11.643928000,0,0,0,0,0,1,1,0
11.643932000,0,0,0,1,0,1,1,0
11.644094000,0,0,0,0,0,1,1,0
11.644100000,0,0,0,0,1,1,1,0
11.644198000,0,0,0,0,0,1,1,0
11.644202000,0,0,0,0,1,1,1,0
11.644224000,0,0,0,0,0,1,1,0
11.644252000,0,1,0,0,0,1,1,0
11.644356000,0,0,0,0,0,1,1,0
11.644394000,0,0,1,0,0,1,1,0
11.650224000,0,0,0,0,0,1,1,0
11.650230000,0,0,0,1,0,1,1,0
11.650354000,0,0,0,0,0,1,1,0
11.650360000,0,0,0,0,1,1,1,0
11.650456000,0,0,0,0,0,1,1,0
11.650462000,0,0,0,0,1,1,1,0
11.650484000,0,0,0,0,0,1,1,0
11.650512000,0,1,0,0,0,1,1,0
11.650614000,0,0,0,0,0,1,1,0
11.650654000,0,0,1,0,0,1,1,0
11.656482000,0,0,0,0,0,1,1,0
11.656486000,0,0,0,1,0,1,1,0
11.656690000,0,0,0,0,0,1,1,0
11.656696000,0,0,0,0,1,1,1,0
11.656792000,0,0,0,0,0,1,1,0
11.656798000,0,0,0,0,1,1,1,0
11.656820000,0,0,0,0,0,1,1,0
11.656848000,0,1,0,0,0,1,1,0
11.656952000,0,0,0,0,0,1,1,0
11.656990000,0,0,1,0,0,1,1,0
11.662820000,0,0,0,0,0,1,1,0
11.662824000,0,0,0,1,0,1,1,0
11.662946000,0,0,0,0,0,1,1,0
11.662952000,0,0,0,0,1,1,1,0
11.663050000,0,0,0,0,0,1,1,0
11.663054000,0,0,0,0,1,1,1,0
11.663076000,0,0,0,0,0,1,1,0
11.663104000,0,1,0,0,0,1,1,0
11.663208000,0,0,0,0,0,1,1,0
11.663246000,0,0,1,0,0,1,1,0
11.669074000,0,0,0,0,0,1,1,0
11.669080000,0,0,0,1,0,1,1,0
11.669178000,0,0,0,0,0,1,1,0
11.669184000,0,0,0,0,1,1,1,0
11.669280000,0,0,0,0,0,1,1,0
11.669286000,0,0,0,0,1,1,1,0
11.669308000,0,0,0,0,0,1,1,0
11.669336000,0,1,0,0,0,1,1,0
11.669440000,0,0,0,0,0,1,1,0
11.669478000,0,0,1,0,0,1,1,0
11.675308000,0,0,0,0,0,1,1,0
11.675312000,0,0,0,1,0,1,1,0
11.675642000,0,0,0,0,0,1,1,0
11.675648000,0,0,0,0,1,1,1,0
11.675744000,0,0,0,0,0,1,1,0
11.675750000,0,0,0,0,1,1,1,0
11.675772000,0,0,0,0,0,1,1,0
11.675800000,0,1,0,0,0,1,1,0
11.675904000,0,0,0,0,0,1,1,0
11.675942000,0,0,1,0,0,1,1,0
11.681770000,0,0,0,0,0,1,1,0
11.681776000,0,0,0,1,0,1,1,0
11.681940000,0,0,0,0,0,1,1,0
11.681946000,0,0,0,0,1,1,1,0
11.682042000,0,0,0,0,0,1,1,0
11.682048000,0,0,0,0,1,1,1,0
11.682070000,0,0,0,0,0,1,1,0
11.682098000,0,1,0,0,0,1,1,0
11.682202000,0,0,0,0,0,1,1,0
11.682240000,0,0,1,0,0,1,1,0
11.688070000,0,0,0,0,0,1,1,0
11.688074000,0,0,0,1,0,1,1,0
11.688206000,0,0,0,0,0,1,1,0
11.688212000,0,0,0,0,1,1,1,0
11.688308000,0,0,0,0,0,1,1,0
11.688312000,0,0,0,0,1,1,1,0
11.688334000,0,0,0,0,0,1,1,0
11.688364000,0,1,0,0,0,1,1,0
11.688466000,0,0,0,0,0,1,1,0
11.688504000,0,0,1,0,0,1,1,0
11.694334000,0,0,0,0,0,1,1,0
11.694338000,0,0,0,1,0,1,1,0
11.694468000,0,0,0,0,0,1,1,0
11.694474000,0,0,0,0,1,1,1,0
11.694570000,0,0,0,0,0,1,1,0
11.694576000,0,0,0,0,1,1,1,0
11.694598000,0,0,0,0,0,1,1,0
11.694626000,0,1,0,0,0,1,1,0
11.694730000,0,0,0,0,0,1,1,0
11.694768000,0,0,1,0,0,1,1,0
11.700596000,0,0,0,0,0,1,1,0
11.700602000,0,0,0,1,0,1,1,0
11.700730000,0,0,0,0,0,1,1,0
11.700736000,0,0,0,0,1,1,1,0
11.700834000,0,0,0,0,0,1,1,0
11.700838000,0,0,0,0,1,1,1,0
11.700860000,0,0,0,0,0,1,1,0
11.700888000,0,1,0,0,0,1,1,0
11.700992000,0,0,0,0,0,1,1,0
11.701030000,0,0,1,0,0,1,1,0
11.706860000,0,0,0,0,0,1,1,0
11.706864000,0,0,0,1,0,1,1,0
11.706988000,0,0,0,0,0,1,1,0
11.706994000,0,0,0,0,1,1,1,0
11.707090000,0,0,0,0,0,1,1,0
11.707096000,0,0,0,0,1,1,1,0
11.707118000,0,0,0,0,0,1,1,0
11.707146000,0,1,0,0,0,1,1,0
11.707250000,0,0,0,0,0,1,1,0
11.707288000,0,0,1,0,0,1,1,0
11.713118000,0,0,0,0,0,1,1,0
11.713122000,0,0,0,1,0,1,1,0
11.713452000,0,0,0,0,0,1,1,0
11.713458000,0,0,0,0,1,1,1,0
11.713556000,0,0,0,0,0,1,1,0
11.713560000,0,0,0,0,1,1,1,0
11.713582000,0,0,0,0,0,1,1,0
11.713610000,0,1,0,0,0,1,1,0
11.713714000,0,0,0,0,0,1,1,0
11.713752000,0,0,1,0,0,1,1,0
