Time [s],Channel 0,Channel 1,Channel 2,Channel 3,Channel 4,Channel 5,Channel 6,Channel 7
0.000000000,0,0,0,1,0,1,0,0
0.000002000,1,1,1,1,1,1,0,0
10.729398000,1,1,1,1,1,1,1,0
10.730868000,1,0,0,0,0,1,1,0
10.730880000,0,0,0,0,0,1,1,0
10.730996000,0,0,1,0,0,1,1,0
10.731540000,0,0,0,0,0,1,1,0
10.731546000,0,0,0,1,0,1,1,0
10.758908000,0,0,0,0,0,1,1,0
10.758914000,0,0,0,0,1,1,1,0
10.759010000,0,0,0,0,0,1,1,0
10.759016000,0,0,0,0,1,1,1,0
10.759038000,0,0,0,0,0,1,1,0
10.759066000,0,1,0,0,0,1,1,0
10.759070000,0,0,0,0,0,1,1,0
10.759084000,0,1,0,0,0,1,1,0
10.759186000,0,0,0,0,0,1,1,0
10.759224000,0,0,1,0,0,1,1,0
10.759770000,0,0,0,0,0,1,1,0
10.759776000,0,0,0,1,0,1,1,0
10.759818000,1,0,0,1,0,1,1,0
10.759822000,0,0,0,1,0,1,1,0
10.759852000,0,0,0,0,0,1,1,0
10.759858000,0,0,0,0,1,1,1,0
10.759956000,0,0,0,0,0,1,1,0
10.759960000,0,0,0,0,1,1,1,0
10.759982000,0,0,0,0,0,1,1,0
10.760010000,0,1,0,0,0,1,1,0
10.760114000,0,0,0,0,0,1,1,0
10.760152000,0,0,1,0,0,1,1,0
10.760698000,0,0,0,0,0,1,1,0
10.760702000,0,0,0,1,0,1,1,0
10.760794000,0,0,0,0,0,1,1,0
10.760800000,0,0,0,0,1,1,1,0
10.760896000,0,0,0,0,0,1,1,0
10.760902000,0,0,0,0,1,1,1,0
10.760924000,0,0,0,0,0,1,1,0
10.760952000,0,1,0,0,0,1,1,0
10.761056000,0,0,0,0,0,1,1,0
10.761094000,0,0,1,0,0,1,1,0
10.761396000,0,0,1,0,0,1,0,0
10.761398000,0,1,1,0,1,1,0,0
10.761400000,1,1,1,1,1,1,0,0
11.315390000,1,1,1,1,1,1,1,0
11.316860000,1,0,0,0,0,1,1,0
11.316872000,0,0,0,0,0,1,1,0
11.316988000,0,0,1,0,0,1,1,0
11.317534000,0,0,0,0,0,1,1,0
11.317538000,0,0,0,1,0,1,1,0
11.324142000,0,0,0,0,0,1,1,0
11.324148000,0,0,0,0,1,1,1,0
11.324246000,0,0,0,0,0,1,1,0
11.324250000,0,0,0,0,1,1,1,0
11.324272000,0,0,0,0,0,1,1,0
11.324300000,0,1,0,0,0,1,1,0
11.324304000,0,0,0,0,0,1,1,0
11.324318000,0,1,0,0,0,1,1,0
11.324422000,0,0,0,0,0,1,1,0
11.324460000,0,0,1,0,0,1,1,0
11.325004000,0,0,0,0,0,1,1,0
11.325008000,0,0,0,1,0,1,1,0
11.331890000,0,0,0,0,0,1,1,0
11.331896000,0,0,0,0,1,1,1,0
11.331994000,0,0,0,0,0,1,1,0
11.331998000,0,0,0,0,1,1,1,0
11.332020000,0,0,0,0,0,1,1,0
11.332048000,0,1,0,0,0,1,1,0
11.332152000,0,0,0,0,0,1,1,0
11.332190000,0,0,1,0,0,1,1,0
11.332736000,0,0,0,0,0,1,1,0
11.332740000,0,0,0,1,0,1,1,0
11.345204000,0,0,0,0,0,1,1,0
11.345210000,0,0,0,0,1,1,1,0
11.345306000,0,0,0,0,0,1,1,0
11.345312000,0,0,0,0,1,1,1,0
11.345334000,0,0,0,0,0,1,1,0
11.345362000,0,1,0,0,0,1,1,0
11.345466000,0,0,0,0,0,1,1,0
11.345504000,0,0,1,0,0,1,1,0
11.346048000,0,0,0,0,0,1,1,0
11.346052000,0,0,0,1,0,1,1,0
11.354738000,0,0,0,0,0,1,1,0
11.354744000,0,0,0,0,1,1,1,0
11.354842000,0,0,0,0,0,1,1,0
11.354846000,0,0,0,0,1,1,1,0
11.354868000,0,0,0,0,0,1,1,0
11.354896000,0,1,0,0,0,1,1,0
11.355000000,0,0,0,0,0,1,1,0
11.355038000,0,0,1,0,0,1,1,0
11.355584000,0,0,0,0,0,1,1,0
11.355590000,0,0,0,1,0,1,1,0
11.455006000,0,0,0,0,0,1,1,0
11.455012000,0,0,0,0,1,1,1,0
11.455110000,0,0,0,0,0,1,1,0
11.455114000,0,0,0,0,1,1,1,0
11.455136000,0,0,0,0,0,1,1,0
11.455164000,0,1,0,0,0,1,1,0
11.455268000,0,0,0,0,0,1,1,0
11.455306000,0,0,1,0,0,1,1,0
11.455850000,0,0,0,0,0,1,1,0
11.455856000,0,0,0,1,0,1,1,0
11.483198000,0,0,0,0,0,1,1,0
11.483204000,0,0,0,0,1,1,1,0
11.483302000,0,0,0,0,0,1,1,0
11.483306000,0,0,0,0,1,1,1,0
11.483328000,0,0,0,0,0,1,1,0
11.483356000,0,1,0,0,0,1,1,0
11.483460000,0,0,0,0,0,1,1,0
11.483498000,0,0,1,0,0,1,1,0
11.484044000,0,0,0,0,0,1,1,0
11.484050000,0,0,0,1,0,1,1,0
11.484092000,1,0,0,1,0,1,1,0
11.484096000,0,0,0,1,0,1,1,0
11.484126000,0,0,0,0,0,1,1,0
11.484132000,0,0,0,0,1,1,1,0
11.484230000,0,0,0,0,0,1,1,0
11.484234000,0,0,0,0,1,1,1,0
11.484256000,0,0,0,0,0,1,1,0
11.484284000,0,1,0,0,0,1,1,0
11.484388000,0,0,0,0,0,1,1,0
11.484426000,0,0,1,0,0,1,1,0
11.484972000,0,0,0,0,0,1,1,0
11.484976000,0,0,0,1,0,1,1,0
11.485068000,0,0,0,0,0,1,1,0
11.485074000,0,0,0,0,1,1,1,0
11.485170000,0,0,0,0,0,1,1,0
11.485176000,0,0,0,0,1,1,1,0
11.485198000,0,0,0,0,0,1,1,0
11.485226000,0,1,0,0,0,1,1,0
11.485330000,0,0,0,0,0,1,1,0
11.485368000,0,0,1,0,0,1,1,0
11.485914000,0,0,0,0,0,1,1,0
11.485918000,0,0,0,1,0,1,1,0
11.492528000,0,0,0,0,0,1,1,0
11.492534000,0,0,0,0,1,1,1,0
11.492630000,0,0,0,0,0,1,1,0
11.492634000,0,0,0,0,1,1,1,0
11.492658000,0,0,0,0,0,1,1,0
11.492686000,0,1,0,0,0,1,1,0
11.492788000,0,0,0,0,0,1,1,0
11.492828000,0,0,1,0,0,1,1,0
11.493372000,0,0,0,0,0,1,1,0
11.493376000,0,0,0,1,0,1,1,0
11.500258000,0,0,0,0,0,1,1,0
11.500264000,0,0,0,0,1,1,1,0
11.500362000,0,0,0,0,0,1,1,0
11.500366000,0,0,0,0,1,1,1,0
11.500388000,0,0,0,0,0,1,1,0
11.500416000,0,1,0,0,0,1,1,0
11.500520000,0,0,0,0,0,1,1,0
11.500558000,0,0,1,0,0,1,1,0
11.501104000,0,0,0,0,0,1,1,0
11.501108000,0,0,0,1,0,1,1,0
11.513564000,0,0,0,0,0,1,1,0
11.513570000,0,0,0,0,1,1,1,0
11.513666000,0,0,0,0,0,1,1,0
11.513670000,0,0,0,0,1,1,1,0
11.513692000,0,0,0,0,0,1,1,0
11.513722000,0,1,0,0,0,1,1,0
11.513824000,0,0,0,0,0,1,1,0
11.513862000,0,0,1,0,0,1,1,0
11.514408000,0,0,0,0,0,1,1,0
11.514412000,0,0,0,1,0,1,1,0
11.523096000,0,0,0,0,0,1,1,0
11.523102000,0,0,0,0,1,1,1,0
11.523198000,0,0,0,0,0,1,1,0
11.523204000,0,0,0,0,1,1,1,0
11.523226000,0,0,0,0,0,1,1,0
11.523254000,0,1,0,0,0,1,1,0
11.523358000,0,0,0,0,0,1,1,0
11.523396000,0,0,1,0,0,1,1,0
11.523942000,0,0,0,0,0,1,1,0
11.523946000,0,0,0,1,0,1,1,0
11.623270000,0,0,0,0,0,1,1,0
11.623276000,0,0,0,0,1,1,1,0
11.623372000,0,0,0,0,0,1,1,0
11.623378000,0,0,0,0,1,1,1,0
11.623400000,0,0,0,0,0,1,1,0
11.623428000,0,1,0,0,0,1,1,0
11.623532000,0,0,0,0,0,1,1,0
11.623570000,0,0,1,0,0,1,1,0
11.624114000,0,0,0,0,0,1,1,0
11.624118000,0,0,0,1,0,1,1,0
11.651366000,0,0,0,0,0,1,1,0
11.651372000,0,0,0,0,1,1,1,0
11.651468000,0,0,0,0,0,1,1,0
11.651474000,0,0,0,0,1,1,1,0
11.651496000,0,0,0,0,0,1,1,0
11.651524000,0,1,0,0,0,1,1,0
11.651628000,0,0,0,0,0,1,1,0
11.651666000,0,0,1,0,0,1,1,0
11.652212000,0,0,0,0,0,1,1,0
11.652216000,0,0,0,1,0,1,1,0
11.652258000,1,0,0,1,0,1,1,0
11.652264000,0,0,0,1,0,1,1,0
11.652294000,0,0,0,0,0,1,1,0
11.652300000,0,0,0,0,1,1,1,0
11.652396000,0,0,0,0,0,1,1,0
11.652402000,0,0,0,0,1,1,1,0
11.652424000,0,0,0,0,0,1,1,0
11.652452000,0,1,0,0,0,1,1,0
11.652556000,0,0,0,0,0,1,1,0
11.652594000,0,0,1,0,0,1,1,0
11.653138000,0,0,0,0,0,1,1,0
11.653144000,0,0,0,1,0,1,1,0
11.653234000,0,0,0,0,0,1,1,0
11.653240000,0,0,0,0,1,1,1,0
11.653338000,0,0,0,0,0,1,1,0
11.653342000,0,0,0,0,1,1,1,0
11.653364000,0,0,0,0,0,1,1,0
11.653392000,0,1,0,0,0,1,1,0
11.653496000,0,0,0,0,0,1,1,0
11.653534000,0,0,1,0,0,1,1,0
11.654080000,0,0,0,0,0,1,1,0
11.654086000,0,0,0,1,0,1,1,0
11.660696000,0,0,0,0,0,1,1,0
11.660702000,0,0,0,0,1,1,1,0
11.660798000,0,0,0,0,0,1,1,0
11.660804000,0,0,0,0,1,1,1,0
11.660826000,0,0,0,0,0,1,1,0
11.660854000,0,1,0,0,0,1,1,0
11.660958000,0,0,0,0,0,1,1,0
11.660996000,0,0,1,0,0,1,1,0
11.661540000,0,0,0,0,0,1,1,0
11.661546000,0,0,0,1,0,1,1,0
11.668428000,0,0,0,0,0,1,1,0
11.668434000,0,0,0,0,1,1,1,0
11.668530000,0,0,0,0,0,1,1,0
11.668534000,0,0,0,0,1,1,1,0
11.668558000,0,0,0,0,0,1,1,0
11.668586000,0,1,0,0,0,1,1,0
11.668688000,0,0,0,0,0,1,1,0
11.668728000,0,0,1,0,0,1,1,0
11.669272000,0,0,0,0,0,1,1,0
11.669278000,0,0,0,1,0,1,1,0
11.681744000,0,0,0,0,0,1,1,0
11.681750000,0,0,0,0,1,1,1,0
11.681846000,0,0,0,0,0,1,1,0
11.681852000,0,0,0,0,1,1,1,0
11.681874000,0,0,0,0,0,1,1,0
11.681902000,0,1,0,0,0,1,1,0
11.682006000,0,0,0,0,0,1,1,0
11.682044000,0,0,1,0,0,1,1,0
11.682588000,0,0,0,0,0,1,1,0
11.682594000,0,0,0,1,0,1,1,0
11.691280000,0,0,0,0,0,1,1,0
11.691286000,0,0,0,0,1,1,1,0
11.691382000,0,0,0,0,0,1,1,0
11.691388000,0,0,0,0,1,1,1,0
11.691410000,0,0,0,0,0,1,1,0
11.691438000,0,1,0,0,0,1,1,0
11.691542000,0,0,0,0,0,1,1,0
11.691580000,0,0,1,0,0,1,1,0
11.692124000,0,0,0,0,0,1,1,0
11.692130000,0,0,0,1,0,1,1,0
11.748384000,0,0,0,1,0,1,0,0
11.748386000,1,1,1,1,1,1,0,0
12.099380000,1,1,1,1,1,1,1,0
12.100850000,1,0,0,0,0,1,1,0
12.100860000,0,0,0,0,0,1,1,0
12.100978000,0,0,1,0,0,1,1,0
12.101524000,0,0,0,0,0,1,1,0
12.101528000,0,0,0,1,0,1,1,0
12.200854000,0,0,0,0,0,1,1,0
12.200860000,0,0,0,0,1,1,1,0
12.200956000,0,0,0,0,0,1,1,0
12.200962000,0,0,0,0,1,1,1,0
12.200984000,0,0,0,0,0,1,1,0
12.201012000,0,1,0,0,0,1,1,0
12.201016000,0,0,0,0,0,1,1,0
12.201030000,0,1,0,0,0,1,1,0
12.201134000,0,0,0,0,0,1,1,0
12.201172000,0,0,1,0,0,1,1,0
12.201716000,0,0,0,0,0,1,1,0
12.201720000,0,0,0,1,0,1,1,0
12.229084000,0,0,0,0,0,1,1,0
12.229090000,0,0,0,0,1,1,1,0
12.229186000,0,0,0,0,0,1,1,0
12.229190000,0,0,0,0,1,1,1,0
12.229214000,0,0,0,0,0,1,1,0
12.229242000,0,1,0,0,0,1,1,0
12.229344000,0,0,0,0,0,1,1,0
12.229384000,0,0,1,0,0,1,1,0
12.229928000,0,0,0,0,0,1,1,0
12.229934000,0,0,0,1,0,1,1,0
12.229976000,1,0,0,1,0,1,1,0
12.229980000,0,0,0,1,0,1,1,0
12.230012000,0,0,0,0,0,1,1,0
12.230018000,0,0,0,0,1,1,1,0
12.230114000,0,0,0,0,0,1,1,0
12.230118000,0,0,0,0,1,1,1,0
12.230140000,0,0,0,0,0,1,1,0
12.230170000,0,1,0,0,0,1,1,0
12.230272000,0,0,0,0,0,1,1,0
12.230312000,0,0,1,0,0,1,1,0
12.230856000,0,0,0,0,0,1,1,0
12.230860000,0,0,0,1,0,1,1,0
12.230952000,0,0,0,0,0,1,1,0
12.230958000,0,0,0,0,1,1,1,0
12.231054000,0,0,0,0,0,1,1,0
12.231060000,0,0,0,0,1,1,1,0
12.231082000,0,0,0,0,0,1,1,0
12.231110000,0,1,0,0,0,1,1,0
12.231214000,0,0,0,0,0,1,1,0
12.231252000,0,0,1,0,0,1,1,0
12.231798000,0,0,0,0,0,1,1,0
12.231802000,0,0,0,1,0,1,1,0
12.238400000,0,0,0,0,0,1,1,0
12.238406000,0,0,0,0,1,1,1,0
12.238504000,0,0,0,0,0,1,1,0
12.238508000,0,0,0,0,1,1,1,0
12.238530000,0,0,0,0,0,1,1,0
12.238558000,0,1,0,0,0,1,1,0
12.238662000,0,0,0,0,0,1,1,0
12.238700000,0,0,1,0,0,1,1,0
12.239244000,0,0,0,0,0,1,1,0
12.239250000,0,0,0,1,0,1,1,0
12.246132000,0,0,0,0,0,1,1,0
12.246138000,0,0,0,0,1,1,1,0
12.246234000,0,0,0,0,0,1,1,0
12.246238000,0,0,0,0,1,1,1,0
12.246262000,0,0,0,0,0,1,1,0
12.246290000,0,1,0,0,0,1,1,0
12.246392000,0,0,0,0,0,1,1,0
12.246432000,0,0,1,0,0,1,1,0
12.246976000,0,0,0,0,0,1,1,0
12.246982000,0,0,0,1,0,1,1,0
12.259444000,0,0,0,0,0,1,1,0
12.259450000,0,0,0,0,1,1,1,0
12.259548000,0,0,0,0,0,1,1,0
12.259552000,0,0,0,0,1,1,1,0
12.259574000,0,0,0,0,0,1,1,0
12.259602000,0,1,0,0,0,1,1,0
12.259706000,0,0,0,0,0,1,1,0
12.259744000,0,0,1,0,0,1,1,0
12.260288000,0,0,0,0,0,1,1,0
12.260294000,0,0,0,1,0,1,1,0
12.268980000,0,0,0,0,0,1,1,0
12.268986000,0,0,0,0,1,1,1,0
12.269082000,0,0,0,0,0,1,1,0
12.269088000,0,0,0,0,1,1,1,0
12.269110000,0,0,0,0,0,1,1,0
12.269138000,0,1,0,0,0,1,1,0
12.269242000,0,0,0,0,0,1,1,0
12.269280000,0,0,1,0,0,1,1,0
12.269826000,0,0,0,0,0,1,1,0
12.269830000,0,0,0,1,0,1,1,0
12.369250000,0,0,0,0,0,1,1,0
12.369256000,0,0,0,0,1,1,1,0
12.369352000,0,0,0,0,0,1,1,0
12.369358000,0,0,0,0,1,1,1,0
12.369380000,0,0,0,0,0,1,1,0
12.369408000,0,1,0,0,0,1,1,0
12.369512000,0,0,0,0,0,1,1,0
12.369550000,0,0,1,0,0,1,1,0
12.370094000,0,0,0,0,0,1,1,0
12.370100000,0,0,0,1,0,1,1,0
12.397442000,0,0,0,0,0,1,1,0
12.397448000,0,0,0,0,1,1,1,0
12.397544000,0,0,0,0,0,1,1,0
12.397550000,0,0,0,0,1,1,1,0
12.397572000,0,0,0,0,0,1,1,0
12.397600000,0,1,0,0,0,1,1,0
12.397704000,0,0,0,0,0,1,1,0
12.397742000,0,0,1,0,0,1,1,0
12.398286000,0,0,0,0,0,1,1,0
12.398292000,0,0,0,1,0,1,1,0
12.398334000,1,0,0,1,0,1,1,0
12.398340000,0,0,0,1,0,1,1,0
12.398370000,0,0,0,0,0,1,1,0
12.398376000,0,0,0,0,1,1,1,0
12.398472000,0,0,0,0,0,1,1,0
12.398476000,0,0,0,0,1,1,1,0
12.398500000,0,0,0,0,0,1,1,0
12.398528000,0,1,0,0,0,1,1,0
12.398630000,0,0,0,0,0,1,1,0
12.398670000,0,0,1,0,0,1,1,0
12.399214000,0,0,0,0,0,1,1,0
12.399218000,0,0,0,1,0,1,1,0
12.399310000,0,0,0,0,0,1,1,0
12.399316000,0,0,0,0,1,1,1,0
12.399412000,0,0,0,0,0,1,1,0
12.399418000,0,0,0,0,1,1,1,0
12.399440000,0,0,0,0,0,1,1,0
12.399468000,0,1,0,0,0,1,1,0
12.399572000,0,0,0,0,0,1,1,0
12.399610000,0,0,1,0,0,1,1,0
12.400156000,0,0,0,0,0,1,1,0
12.400160000,0,0,0,1,0,1,1,0
12.406794000,0,0,0,0,0,1,1,0
12.406800000,0,0,0,0,1,1,1,0
12.406896000,0,0,0,0,0,1,1,0
12.406902000,0,0,0,0,1,1,1,0
12.406924000,0,0,0,0,0,1,1,0
12.406952000,0,1,0,0,0,1,1,0
12.407056000,0,0,0,0,0,1,1,0
12.407094000,0,0,1,0,0,1,1,0
12.407638000,0,0,0,0,0,1,1,0
12.407642000,0,0,0,1,0,1,1,0
12.414524000,0,0,0,0,0,1,1,0
12.414530000,0,0,0,0,1,1,1,0
12.414626000,0,0,0,0,0,1,1,0
12.414632000,0,0,0,0,1,1,1,0
12.414654000,0,0,0,0,0,1,1,0
12.414682000,0,1,0,0,0,1,1,0
12.414786000,0,0,0,0,0,1,1,0
12.414824000,0,0,1,0,0,1,1,0
12.415370000,0,0,0,0,0,1,1,0
12.415374000,0,0,0,1,0,1,1,0
12.427828000,0,0,0,0,0,1,1,0
12.427834000,0,0,0,0,1,1,1,0
12.427930000,0,0,0,0,0,1,1,0
12.427936000,0,0,0,0,1,1,1,0
12.427958000,0,0,0,0,0,1,1,0
12.427986000,0,1,0,0,0,1,1,0
12.428090000,0,0,0,0,0,1,1,0
12.428128000,0,0,1,0,0,1,1,0
12.428672000,0,0,0,0,0,1,1,0
12.428678000,0,0,0,1,0,1,1,0
12.437360000,0,0,0,0,0,1,1,0
12.437366000,0,0,0,0,1,1,1,0
12.437464000,0,0,0,0,0,1,1,0
12.437468000,0,0,0,0,1,1,1,0
12.437490000,0,0,0,0,0,1,1,0
12.437518000,0,1,0,0,0,1,1,0
12.437622000,0,0,0,0,0,1,1,0
12.437660000,0,0,1,0,0,1,1,0
12.438206000,0,0,0,0,0,1,1,0
12.438210000,0,0,0,1,0,1,1,0
12.537532000,0,0,0,0,0,1,1,0
12.537538000,0,0,0,0,1,1,1,0
12.537634000,0,0,0,0,0,1,1,0
12.537640000,0,0,0,0,1,1,1,0
12.537662000,0,0,0,0,0,1,1,0
12.537690000,0,1,0,0,0,1,1,0
12.537794000,0,0,0,0,0,1,1,0
12.537832000,0,0,1,0,0,1,1,0
12.538376000,0,0,0,0,0,1,1,0
12.538382000,0,0,0,1,0,1,1,0
12.565626000,0,0,0,0,0,1,1,0
12.565632000,0,0,0,0,1,1,1,0
12.565728000,0,0,0,0,0,1,1,0
12.565734000,0,0,0,0,1,1,1,0
12.565756000,0,0,0,0,0,1,1,0
12.565784000,0,1,0,0,0,1,1,0
12.565888000,0,0,0,0,0,1,1,0
12.565926000,0,0,1,0,0,1,1,0
12.566470000,0,0,0,0,0,1,1,0
12.566476000,0,0,0,1,0,1,1,0
12.566518000,1,0,0,1,0,1,1,0
12.566524000,0,0,0,1,0,1,1,0
12.566554000,0,0,0,0,0,1,1,0
12.566560000,0,0,0,0,1,1,1,0
12.566656000,0,0,0,0,0,1,1,0
12.566662000,0,0,0,0,1,1,1,0
12.566684000,0,0,0,0,0,1,1,0
12.566712000,0,1,0,0,0,1,1,0
12.566816000,0,0,0,0,0,1,1,0
12.566854000,0,0,1,0,0,1,1,0
12.567398000,0,0,0,0,0,1,1,0
12.567402000,0,0,0,1,0,1,1,0
12.567494000,0,0,0,0,0,1,1,0
12.567500000,0,0,0,0,1,1,1,0
12.567596000,0,0,0,0,0,1,1,0
12.567602000,0,0,0,0,1,1,1,0
12.567624000,0,0,0,0,0,1,1,0
12.567652000,0,1,0,0,0,1,1,0
12.567756000,0,0,0,0,0,1,1,0
12.567794000,0,0,1,0,0,1,1,0
12.568340000,0,0,0,0,0,1,1,0
12.568344000,0,0,0,1,0,1,1,0
12.574980000,0,0,0,0,0,1,1,0
12.574986000,0,0,0,0,1,1,1,0
12.575082000,0,0,0,0,0,1,1,0
12.575088000,0,0,0,0,1,1,1,0
12.575110000,0,0,0,0,0,1,1,0
12.575138000,0,1,0,0,0,1,1,0
12.575240000,0,0,0,0,0,1,1,0
12.575280000,0,0,1,0,0,1,1,0
12.575824000,0,0,0,0,0,1,1,0
12.575828000,0,0,0,1,0,1,1,0
12.582710000,0,0,0,0,0,1,1,0
12.582716000,0,0,0,0,1,1,1,0
12.582812000,0,0,0,0,0,1,1,0
12.582818000,0,0,0,0,1,1,1,0
12.582840000,0,0,0,0,0,1,1,0
12.582868000,0,1,0,0,0,1,1,0
12.582972000,0,0,0,0,0,1,1,0
12.583010000,0,0,1,0,0,1,1,0
12.583556000,0,0,0,0,0,1,1,0
12.583560000,0,0,0,1,0,1,1,0
12.596026000,0,0,0,0,0,1,1,0
12.596032000,0,0,0,0,1,1,1,0
12.596128000,0,0,0,0,0,1,1,0
12.596132000,0,0,0,0,1,1,1,0
12.596156000,0,0,0,0,0,1,1,0
12.596184000,0,1,0,0,0,1,1,0
12.596286000,0,0,0,0,0,1,1,0
12.596326000,0,0,1,0,0,1,1,0
12.596870000,0,0,0,0,0,1,1,0
12.596874000,0,0,0,1,0,1,1,0
12.605560000,0,0,0,0,0,1,1,0
12.605566000,0,0,0,0,1,1,1,0
12.605662000,0,0,0,0,0,1,1,0
12.605668000,0,0,0,0,1,1,1,0
12.605690000,0,0,0,0,0,1,1,0
12.605718000,0,1,0,0,0,1,1,0
12.605822000,0,0,0,0,0,1,1,0
12.605860000,0,0,1,0,0,1,1,0
12.606406000,0,0,0,0,0,1,1,0
12.606410000,0,0,0,1,0,1,1,0
12.705732000,0,0,0,0,0,1,1,0
12.705738000,0,0,0,0,1,1,1,0
12.705836000,0,0,0,0,0,1,1,0
12.705840000,0,0,0,0,1,1,1,0
12.705862000,0,0,0,0,0,1,1,0
12.705890000,0,1,0,0,0,1,1,0
12.705994000,0,0,0,0,0,1,1,0
12.706032000,0,0,1,0,0,1,1,0
12.706578000,0,0,0,0,0,1,1,0
12.706582000,0,0,0,1,0,1,1,0
12.725372000,0,0,0,1,0,1,0,0
12.725374000,0,1,1,1,1,1,0,0
12.725376000,1,1,1,1,1,1,0,0
12.802372000,1,1,1,1,1,1,1,0
12.803840000,1,0,0,0,0,1,1,0
12.803852000,0,0,0,0,0,1,1,0
12.803970000,0,0,1,0,0,1,1,0
12.804514000,0,0,0,0,0,1,1,0
12.804518000,0,0,0,1,0,1,1,0
12.831880000,0,0,0,0,0,1,1,0
12.831886000,0,0,0,0,1,1,1,0
12.831982000,0,0,0,0,0,1,1,0
12.831988000,0,0,0,0,1,1,1,0
12.832010000,0,0,0,0,0,1,1,0
12.832038000,0,1,0,0,0,1,1,0
12.832042000,0,0,0,0,0,1,1,0
12.832054000,0,1,0,0,0,1,1,0
12.832158000,0,0,0,0,0,1,1,0
12.832196000,0,0,1,0,0,1,1,0
12.832742000,0,0,0,0,0,1,1,0
12.832746000,0,0,0,1,0,1,1,0
12.832790000,1,0,0,1,0,1,1,0
12.832794000,0,0,0,1,0,1,1,0
12.832824000,0,0,0,0,0,1,1,0
12.832830000,0,0,0,0,1,1,1,0
12.832928000,0,0,0,0,0,1,1,0
12.832932000,0,0,0,0,1,1,1,0
12.832954000,0,0,0,0,0,1,1,0
12.832982000,0,1,0,0,0,1,1,0
12.833086000,0,0,0,0,0,1,1,0
12.833124000,0,0,1,0,0,1,1,0
12.833668000,0,0,0,0,0,1,1,0
12.833674000,0,0,0,1,0,1,1,0
12.833766000,0,0,0,0,0,1,1,0
12.833772000,0,0,0,0,1,1,1,0
12.833868000,0,0,0,0,0,1,1,0
12.833874000,0,0,0,0,1,1,1,0
12.833896000,0,0,0,0,0,1,1,0
12.833924000,0,1,0,0,0,1,1,0
12.834028000,0,0,0,0,0,1,1,0
12.834066000,0,0,1,0,0,1,1,0
12.834610000,0,0,0,0,0,1,1,0
12.834616000,0,0,0,1,0,1,1,0
12.841246000,0,0,0,0,0,1,1,0
12.841252000,0,0,0,0,1,1,1,0
12.841348000,0,0,0,0,0,1,1,0
12.841354000,0,0,0,0,1,1,1,0
12.841376000,0,0,0,0,0,1,1,0
12.841404000,0,1,0,0,0,1,1,0
12.841508000,0,0,0,0,0,1,1,0
12.841546000,0,0,1,0,0,1,1,0
12.842090000,0,0,0,0,0,1,1,0
12.842094000,0,0,0,1,0,1,1,0
12.848976000,0,0,0,0,0,1,1,0
12.848982000,0,0,0,0,1,1,1,0
12.849080000,0,0,0,0,0,1,1,0
12.849084000,0,0,0,0,1,1,1,0
12.849106000,0,0,0,0,0,1,1,0
12.849134000,0,1,0,0,0,1,1,0
12.849238000,0,0,0,0,0,1,1,0
12.849276000,0,0,1,0,0,1,1,0
12.849822000,0,0,0,0,0,1,1,0
12.849826000,0,0,0,1,0,1,1,0
12.862290000,0,0,0,0,0,1,1,0
12.862296000,0,0,0,0,1,1,1,0
12.862392000,0,0,0,0,0,1,1,0
12.862398000,0,0,0,0,1,1,1,0
12.862420000,0,0,0,0,0,1,1,0
12.862448000,0,1,0,0,0,1,1,0
12.862552000,0,0,0,0,0,1,1,0
12.862590000,0,0,1,0,0,1,1,0
12.863134000,0,0,0,0,0,1,1,0
12.863138000,0,0,0,1,0,1,1,0
12.871824000,0,0,0,0,0,1,1,0
12.871830000,0,0,0,0,1,1,1,0
12.871928000,0,0,0,0,0,1,1,0
12.871932000,0,0,0,0,1,1,1,0
12.871954000,0,0,0,0,0,1,1,0
12.871982000,0,1,0,0,0,1,1,0
12.872086000,0,0,0,0,0,1,1,0
12.872124000,0,0,1,0,0,1,1,0
12.872670000,0,0,0,0,0,1,1,0
12.872676000,0,0,0,1,0,1,1,0
12.972090000,0,0,0,0,0,1,1,0
12.972096000,0,0,0,0,1,1,1,0
12.972192000,0,0,0,0,0,1,1,0
12.972198000,0,0,0,0,1,1,1,0
12.972220000,0,0,0,0,0,1,1,0
12.972248000,0,1,0,0,0,1,1,0
12.972350000,0,0,0,0,0,1,1,0
12.972390000,0,0,1,0,0,1,1,0
12.972934000,0,0,0,0,0,1,1,0
12.972938000,0,0,0,1,0,1,1,0
13.000280000,0,0,0,0,0,1,1,0
13.000286000,0,0,0,0,1,1,1,0
13.000384000,0,0,0,0,0,1,1,0
13.000388000,0,0,0,0,1,1,1,0
13.000410000,0,0,0,0,0,1,1,0
13.000438000,0,1,0,0,0,1,1,0
13.000542000,0,0,0,0,0,1,1,0
13.000580000,0,0,1,0,0,1,1,0
13.001126000,0,0,0,0,0,1,1,0
13.001132000,0,0,0,1,0,1,1,0
13.001174000,1,0,0,1,0,1,1,0
13.001178000,0,0,0,1,0,1,1,0
13.001208000,0,0,0,0,0,1,1,0
13.001214000,0,0,0,0,1,1,1,0
13.001312000,0,0,0,0,0,1,1,0
13.001316000,0,0,0,0,1,1,1,0
13.001338000,0,0,0,0,0,1,1,0
13.001366000,0,1,0,0,0,1,1,0
13.001470000,0,0,0,0,0,1,1,0
13.001508000,0,0,1,0,0,1,1,0
13.002052000,0,0,0,0,0,1,1,0
13.002058000,0,0,0,1,0,1,1,0
13.002150000,0,0,0,0,0,1,1,0
13.002156000,0,0,0,0,1,1,1,0
13.002252000,0,0,0,0,0,1,1,0
13.002258000,0,0,0,0,1,1,1,0
13.002280000,0,0,0,0,0,1,1,0
13.002308000,0,1,0,0,0,1,1,0
13.002412000,0,0,0,0,0,1,1,0
13.002450000,0,0,1,0,0,1,1,0
13.002994000,0,0,0,0,0,1,1,0
13.003000000,0,0,0,1,0,1,1,0
13.009634000,0,0,0,0,0,1,1,0
13.009640000,0,0,0,0,1,1,1,0
13.009738000,0,0,0,0,0,1,1,0
13.009742000,0,0,0,0,1,1,1,0
13.009764000,0,0,0,0,0,1,1,0
13.009792000,0,1,0,0,0,1,1,0
13.009896000,0,0,0,0,0,1,1,0
13.009934000,0,0,1,0,0,1,1,0
13.010480000,0,0,0,0,0,1,1,0
13.010484000,0,0,0,1,0,1,1,0
13.017366000,0,0,0,0,0,1,1,0
13.017372000,0,0,0,0,1,1,1,0
13.017468000,0,0,0,0,0,1,1,0
13.017474000,0,0,0,0,1,1,1,0
13.017496000,0,0,0,0,0,1,1,0
13.017524000,0,1,0,0,0,1,1,0
13.017628000,0,0,0,0,0,1,1,0
13.017666000,0,0,1,0,0,1,1,0
13.018210000,0,0,0,0,0,1,1,0
13.018216000,0,0,0,1,0,1,1,0
13.030670000,0,0,0,0,0,1,1,0
13.030676000,0,0,0,0,1,1,1,0
13.030772000,0,0,0,0,0,1,1,0
13.030778000,0,0,0,0,1,1,1,0
13.030800000,0,0,0,0,0,1,1,0
13.030828000,0,1,0,0,0,1,1,0
13.030932000,0,0,0,0,0,1,1,0
13.030970000,0,0,1,0,0,1,1,0
13.031514000,0,0,0,0,0,1,1,0
13.031518000,0,0,0,1,0,1,1,0
13.040202000,0,0,0,0,0,1,1,0
13.040208000,0,0,0,0,1,1,1,0
13.040304000,0,0,0,0,0,1,1,0
13.040310000,0,0,0,0,1,1,1,0
13.040332000,0,0,0,0,0,1,1,0
13.040360000,0,1,0,0,0,1,1,0
13.040464000,0,0,0,0,0,1,1,0
13.040502000,0,0,1,0,0,1,1,0
13.041046000,0,0,0,0,0,1,1,0
13.041052000,0,0,0,1,0,1,1,0
