Time [s],Channel 0,Channel 1,Channel 2,Channel 3,Channel 4,Channel 5,Channel 6,Channel 7
0.000000000,0,0,0,1,0,1,0,0
0.000002000,1,1,1,1,1,1,0,0
10.729402000,1,1,1,1,1,1,1,0
10.731234000,1,0,0,0,0,1,1,0
10.731244000,0,0,0,0,0,1,1,0
10.731358000,0,0,1,0,0,1,1,0
10.731932000,0,0,0,0,0,1,1,0
10.731938000,0,0,0,1,0,1,1,0
10.736006000,0,0,0,0,0,1,1,0
10.736012000,0,0,0,0,1,1,1,0
10.736108000,0,0,0,0,0,1,1,0
10.736114000,0,0,0,0,1,1,1,0
10.736136000,0,0,0,0,0,1,1,0
10.736164000,0,1,0,0,0,1,1,0
10.736168000,0,0,0,0,0,1,1,0
10.736180000,0,1,0,0,0,1,1,0
10.736282000,0,0,0,0,0,1,1,0
10.736320000,0,0,1,0,0,1,1,0
10.736896000,0,0,0,0,0,1,1,0
10.736902000,0,0,0,1,0,1,1,0
10.737200000,0,0,0,0,0,1,1,0
10.737204000,0,0,0,0,1,1,1,0
10.737300000,0,0,0,0,0,1,1,0
10.737306000,0,0,0,0,1,1,1,0
10.737328000,0,0,0,0,0,1,1,0
10.737356000,0,1,0,0,0,1,1,0
10.737458000,0,0,0,0,0,1,1,0
10.737496000,0,0,1,0,0,1,1,0
10.738070000,0,0,0,0,0,1,1,0
10.738076000,0,0,0,1,0,1,1,0
10.738260000,0,0,0,0,0,1,1,0
10.738266000,0,0,0,0,1,1,1,0
10.738362000,0,0,0,0,0,1,1,0
10.738368000,0,0,0,0,1,1,1,0
10.738390000,0,0,0,0,0,1,1,0
10.738418000,0,1,0,0,0,1,1,0
10.738520000,0,0,0,0,0,1,1,0
10.738558000,0,0,1,0,0,1,1,0
10.739132000,0,0,0,0,0,1,1,0
10.739138000,0,0,0,1,0,1,1,0
10.739940000,0,0,0,0,0,1,1,0
10.739946000,0,0,0,0,1,1,1,0
10.740042000,0,0,0,0,0,1,1,0
10.740048000,0,0,0,0,1,1,1,0
10.740070000,0,0,0,0,0,1,1,0
10.740098000,0,1,0,0,0,1,1,0
10.740200000,0,0,0,0,0,1,1,0
10.740238000,0,0,1,0,0,1,1,0
10.740812000,0,0,0,0,0,1,1,0
10.740818000,0,0,0,1,0,1,1,0
10.741002000,0,0,0,0,0,1,1,0
10.741008000,0,0,0,0,1,1,1,0
10.741104000,0,0,0,0,0,1,1,0
10.741110000,0,0,0,0,1,1,1,0
10.741130000,0,0,0,0,0,1,1,0
10.741160000,0,1,0,0,0,1,1,0
10.741260000,0,0,0,0,0,1,1,0
10.741300000,0,0,1,0,0,1,1,0
10.741874000,0,0,0,0,0,1,1,0
10.741880000,0,0,0,1,0,1,1,0
10.742692000,0,0,0,0,0,1,1,0
10.742696000,0,0,0,0,1,1,1,0
10.742794000,0,0,0,0,0,1,1,0
10.742800000,0,0,0,0,1,1,1,0
10.742820000,0,0,0,0,0,1,1,0
10.742848000,0,1,0,0,0,1,1,0
10.742950000,0,0,0,0,0,1,1,0
10.742988000,0,0,1,0,0,1,1,0
10.743564000,0,0,0,0,0,1,1,0
10.743570000,0,0,0,1,0,1,1,0
10.752562000,0,0,0,0,0,1,1,0
10.752568000,0,0,0,0,1,1,1,0
10.752664000,0,0,0,0,0,1,1,0
10.752670000,0,0,0,0,1,1,1,0
10.752690000,0,0,0,0,0,1,1,0
10.752720000,0,1,0,0,0,1,1,0
10.752820000,0,0,0,0,0,1,1,0
10.752858000,0,0,1,0,0,1,1,0
10.753434000,0,0,0,0,0,1,1,0
10.753440000,0,0,0,1,0,1,1,0
10.753666000,0,0,0,0,0,1,1,0
10.753672000,0,0,0,0,1,1,1,0
10.753768000,0,0,0,0,0,1,1,0
10.753774000,0,0,0,0,1,1,1,0
10.753794000,0,0,0,0,0,1,1,0
10.753824000,0,1,0,0,0,1,1,0
10.753924000,0,0,0,0,0,1,1,0
10.753962000,0,0,1,0,0,1,1,0
10.754538000,0,0,0,0,0,1,1,0
10.754544000,0,0,0,1,0,1,1,0
10.754728000,0,0,0,0,0,1,1,0
10.754732000,0,0,0,0,1,1,1,0
10.754830000,0,0,0,0,0,1,1,0
10.754836000,0,0,0,0,1,1,1,0
10.754856000,0,0,0,0,0,1,1,0
10.754884000,0,1,0,0,0,1,1,0
10.754986000,0,0,0,0,0,1,1,0
10.755024000,0,0,1,0,0,1,1,0
10.755600000,0,0,0,0,0,1,1,0
10.755606000,0,0,0,1,0,1,1,0
10.756412000,0,0,0,0,0,1,1,0
10.756416000,0,0,0,0,1,1,1,0
10.756512000,0,0,0,0,0,1,1,0
10.756520000,0,0,0,0,1,1,1,0
10.756540000,0,0,0,0,0,1,1,0
10.756568000,0,1,0,0,0,1,1,0
10.756670000,0,0,0,0,0,1,1,0
10.756708000,0,0,1,0,0,1,1,0
10.757282000,0,0,0,0,0,1,1,0
10.757288000,0,0,0,1,0,1,1,0
10.757474000,0,0,0,0,0,1,1,0
10.757478000,0,0,0,0,1,1,1,0
10.757574000,0,0,0,0,0,1,1,0
10.757580000,0,0,0,0,1,1,1,0
10.757602000,0,0,0,0,0,1,1,0
10.757630000,0,1,0,0,0,1,1,0
10.757732000,0,0,0,0,0,1,1,0
10.757770000,0,0,1,0,0,1,1,0
10.758344000,0,0,0,0,0,1,1,0
10.758350000,0,0,0,1,0,1,1,0
10.759158000,0,0,0,0,0,1,1,0
10.759164000,0,0,0,0,1,1,1,0
10.759260000,0,0,0,0,0,1,1,0
10.759266000,0,0,0,0,1,1,1,0
10.759288000,0,0,0,0,0,1,1,0
10.759316000,0,1,0,0,0,1,1,0
10.759418000,0,0,0,0,0,1,1,0
10.759456000,0,0,1,0,0,1,1,0
10.760030000,0,0,0,0,0,1,1,0
10.760036000,0,0,0,1,0,1,1,0
10.761400000,0,0,0,1,0,1,0,0
10.761402000,1,1,1,1,1,1,0,0
11.315394000,1,1,1,1,1,1,1,0
11.317226000,1,0,0,0,0,1,1,0
11.317236000,0,0,0,0,0,1,1,0
11.317350000,0,0,1,0,0,1,1,0
11.317924000,0,0,0,0,0,1,1,0
11.317930000,0,0,0,1,0,1,1,0
11.327002000,0,0,0,0,0,1,1,0
11.327006000,0,0,0,0,1,1,1,0
11.327104000,0,0,0,0,0,1,1,0
11.327110000,0,0,0,0,1,1,1,0
11.327130000,0,0,0,0,0,1,1,0
11.327158000,0,1,0,0,0,1,1,0
11.327164000,0,0,0,0,0,1,1,0
11.327176000,0,1,0,0,0,1,1,0
11.327278000,0,0,0,0,0,1,1,0
11.327316000,0,0,1,0,0,1,1,0
11.327890000,0,0,0,0,0,1,1,0
11.327896000,0,0,0,1,0,1,1,0
11.328080000,0,0,0,0,0,1,1,0
11.328086000,0,0,0,0,1,1,1,0
11.328182000,0,0,0,0,0,1,1,0
11.328188000,0,0,0,0,1,1,1,0
11.328210000,0,0,0,0,0,1,1,0
11.328238000,0,1,0,0,0,1,1,0
11.328340000,0,0,0,0,0,1,1,0
11.328378000,0,0,1,0,0,1,1,0
11.328952000,0,0,0,0,0,1,1,0
11.328958000,0,0,0,1,0,1,1,0
11.329766000,0,0,0,0,0,1,1,0
11.329772000,0,0,0,0,1,1,1,0
11.329868000,0,0,0,0,0,1,1,0
11.329874000,0,0,0,0,1,1,1,0
11.329894000,0,0,0,0,0,1,1,0
11.329922000,0,1,0,0,0,1,1,0
11.330024000,0,0,0,0,0,1,1,0
11.330062000,0,0,1,0,0,1,1,0
11.330638000,0,0,0,0,0,1,1,0
11.330644000,0,0,0,1,0,1,1,0
11.339686000,0,0,0,0,0,1,1,0
11.339690000,0,0,0,0,1,1,1,0
11.339786000,0,0,0,0,0,1,1,0
11.339792000,0,0,0,0,1,1,1,0
11.339814000,0,0,0,0,0,1,1,0
11.339842000,0,1,0,0,0,1,1,0
11.339944000,0,0,0,0,0,1,1,0
11.339982000,0,0,1,0,0,1,1,0
11.340556000,0,0,0,0,0,1,1,0
11.340562000,0,0,0,1,0,1,1,0
11.340746000,0,0,0,0,0,1,1,0
11.340752000,0,0,0,0,1,1,1,0
11.340848000,0,0,0,0,0,1,1,0
11.340854000,0,0,0,0,1,1,1,0
11.340876000,0,0,0,0,0,1,1,0
11.340904000,0,1,0,0,0,1,1,0
11.341006000,0,0,0,0,0,1,1,0
11.341044000,0,0,1,0,0,1,1,0
11.341618000,0,0,0,0,0,1,1,0
11.341624000,0,0,0,1,0,1,1,0
11.342428000,0,0,0,0,0,1,1,0
11.342434000,0,0,0,0,1,1,1,0
11.342530000,0,0,0,0,0,1,1,0
11.342536000,0,0,0,0,1,1,1,0
11.342558000,0,0,0,0,0,1,1,0
11.342586000,0,1,0,0,0,1,1,0
11.342686000,0,0,0,0,0,1,1,0
11.342726000,0,0,1,0,0,1,1,0
11.343300000,0,0,0,0,0,1,1,0
11.343306000,0,0,0,1,0,1,1,0
11.353500000,0,0,0,0,0,1,1,0
11.353506000,0,0,0,0,1,1,1,0
11.353602000,0,0,0,0,0,1,1,0
11.353608000,0,0,0,0,1,1,1,0
11.353630000,0,0,0,0,0,1,1,0
11.353658000,0,1,0,0,0,1,1,0
11.353760000,0,0,0,0,0,1,1,0
11.353798000,0,0,1,0,0,1,1,0
11.354372000,0,0,0,0,0,1,1,0
11.354378000,0,0,0,1,0,1,1,0
11.354728000,0,0,0,0,0,1,1,0
11.354732000,0,0,0,0,1,1,1,0
11.354828000,0,0,0,0,0,1,1,0
11.354834000,0,0,0,0,1,1,1,0
11.354856000,0,0,0,0,0,1,1,0
11.354884000,0,1,0,0,0,1,1,0
11.354986000,0,0,0,0,0,1,1,0
11.355024000,0,0,1,0,0,1,1,0
11.355598000,0,0,0,0,0,1,1,0
11.355604000,0,0,0,1,0,1,1,0
11.359308000,0,0,0,0,0,1,1,0
11.359314000,0,0,0,0,1,1,1,0
11.359410000,0,0,0,0,0,1,1,0
11.359416000,0,0,0,0,1,1,1,0
11.359436000,0,0,0,0,0,1,1,0
11.359466000,0,1,0,0,0,1,1,0
11.359566000,0,0,0,0,0,1,1,0
11.359606000,0,0,1,0,0,1,1,0
11.360180000,0,0,0,0,0,1,1,0
11.360186000,0,0,0,1,0,1,1,0
11.360484000,0,0,0,0,0,1,1,0
11.360488000,0,0,0,0,1,1,1,0
11.360586000,0,0,0,0,0,1,1,0
11.360592000,0,0,0,0,1,1,1,0
11.360612000,0,0,0,0,0,1,1,0
11.360640000,0,1,0,0,0,1,1,0
11.360742000,0,0,0,0,0,1,1,0
11.360780000,0,0,1,0,0,1,1,0
11.361356000,0,0,0,0,0,1,1,0
11.361362000,0,0,0,1,0,1,1,0
11.361546000,0,0,0,0,0,1,1,0
11.361550000,0,0,0,0,1,1,1,0
11.361646000,0,0,0,0,0,1,1,0
11.361652000,0,0,0,0,1,1,1,0
11.361674000,0,0,0,0,0,1,1,0
11.361702000,0,1,0,0,0,1,1,0
11.361804000,0,0,0,0,0,1,1,0
11.361842000,0,0,1,0,0,1,1,0
11.362416000,0,0,0,0,0,1,1,0
11.362422000,0,0,0,1,0,1,1,0
11.363156000,0,0,0,0,0,1,1,0
11.363162000,0,0,0,0,1,1,1,0
11.363258000,0,0,0,0,0,1,1,0
11.363264000,0,0,0,0,1,1,1,0
11.363286000,0,0,0,0,0,1,1,0
11.363314000,0,1,0,0,0,1,1,0
11.363416000,0,0,0,0,0,1,1,0
11.363454000,0,0,1,0,0,1,1,0
11.364028000,0,0,0,0,0,1,1,0
11.364034000,0,0,0,1,0,1,1,0
11.364218000,0,0,0,0,0,1,1,0
11.364224000,0,0,0,0,1,1,1,0
11.364320000,0,0,0,0,0,1,1,0
11.364326000,0,0,0,0,1,1,1,0
11.364346000,0,0,0,0,0,1,1,0
11.364376000,0,1,0,0,0,1,1,0
11.364476000,0,0,0,0,0,1,1,0
11.364514000,0,0,1,0,0,1,1,0
11.365090000,0,0,0,0,0,1,1,0
11.365096000,0,0,0,1,0,1,1,0
11.365840000,0,0,0,0,0,1,1,0
11.365844000,0,0,0,0,1,1,1,0
11.365940000,0,0,0,0,0,1,1,0
11.365946000,0,0,0,0,1,1,1,0
11.365968000,0,0,0,0,0,1,1,0
11.365996000,0,1,0,0,0,1,1,0
11.366098000,0,0,0,0,0,1,1,0
11.366136000,0,0,1,0,0,1,1,0
11.366710000,0,0,0,0,0,1,1,0
11.366716000,0,0,0,1,0,1,1,0
11.376980000,0,0,0,0,0,1,1,0
11.376986000,0,0,0,0,1,1,1,0
11.377082000,0,0,0,0,0,1,1,0
11.377088000,0,0,0,0,1,1,1,0
11.377110000,0,0,0,0,0,1,1,0
11.377138000,0,1,0,0,0,1,1,0
11.377240000,0,0,0,0,0,1,1,0
11.377278000,0,0,1,0,0,1,1,0
11.377852000,0,0,0,0,0,1,1,0
11.377858000,0,0,0,1,0,1,1,0
11.378208000,0,0,0,0,0,1,1,0
11.378212000,0,0,0,0,1,1,1,0
11.378308000,0,0,0,0,0,1,1,0
11.378314000,0,0,0,0,1,1,1,0
11.378336000,0,0,0,0,0,1,1,0
11.378364000,0,1,0,0,0,1,1,0
11.378466000,0,0,0,0,0,1,1,0
11.378504000,0,0,1,0,0,1,1,0
11.379078000,0,0,0,0,0,1,1,0
11.379084000,0,0,0,1,0,1,1,0
11.383388000,0,0,0,0,0,1,1,0
11.383394000,0,0,0,0,1,1,1,0
11.383490000,0,0,0,0,0,1,1,0
11.383496000,0,0,0,0,1,1,1,0
11.383518000,0,0,0,0,0,1,1,0
11.383546000,0,1,0,0,0,1,1,0
11.383648000,0,0,0,0,0,1,1,0
11.383686000,0,0,1,0,0,1,1,0
11.384260000,0,0,0,0,0,1,1,0
11.384266000,0,0,0,1,0,1,1,0
11.384564000,0,0,0,0,0,1,1,0
11.384568000,0,0,0,0,1,1,1,0
11.384666000,0,0,0,0,0,1,1,0
11.384672000,0,0,0,0,1,1,1,0
11.384692000,0,0,0,0,0,1,1,0
11.384720000,0,1,0,0,0,1,1,0
11.384822000,0,0,0,0,0,1,1,0
11.384860000,0,0,1,0,0,1,1,0
11.385436000,0,0,0,0,0,1,1,0
11.385442000,0,0,0,1,0,1,1,0
11.385626000,0,0,0,0,0,1,1,0
11.385630000,0,0,0,0,1,1,1,0
11.385728000,0,0,0,0,0,1,1,0
11.385734000,0,0,0,0,1,1,1,0
11.385754000,0,0,0,0,0,1,1,0
11.385782000,0,1,0,0,0,1,1,0
11.385884000,0,0,0,0,0,1,1,0
11.385922000,0,0,1,0,0,1,1,0
11.386496000,0,0,0,0,0,1,1,0
11.386502000,0,0,0,1,0,1,1,0
11.387242000,0,0,0,0,0,1,1,0
11.387248000,0,0,0,0,1,1,1,0
11.387344000,0,0,0,0,0,1,1,0
11.387350000,0,0,0,0,1,1,1,0
11.387372000,0,0,0,0,0,1,1,0
11.387400000,0,1,0,0,0,1,1,0
11.387502000,0,0,0,0,0,1,1,0
11.387540000,0,0,1,0,0,1,1,0
11.388114000,0,0,0,0,0,1,1,0
11.388120000,0,0,0,1,0,1,1,0
11.397166000,0,0,0,0,0,1,1,0
11.397170000,0,0,0,0,1,1,1,0
11.397268000,0,0,0,0,0,1,1,0
11.397274000,0,0,0,0,1,1,1,0
11.397294000,0,0,0,0,0,1,1,0
11.397322000,0,1,0,0,0,1,1,0
11.397424000,0,0,0,0,0,1,1,0
11.397462000,0,0,1,0,0,1,1,0
11.398036000,0,0,0,0,0,1,1,0
11.398042000,0,0,0,1,0,1,1,0
11.398228000,0,0,0,0,0,1,1,0
11.398232000,0,0,0,0,1,1,1,0
11.398328000,0,0,0,0,0,1,1,0
11.398334000,0,0,0,0,1,1,1,0
11.398356000,0,0,0,0,0,1,1,0
11.398384000,0,1,0,0,0,1,1,0
11.398486000,0,0,0,0,0,1,1,0
11.398524000,0,0,1,0,0,1,1,0
11.399098000,0,0,0,0,0,1,1,0
11.399104000,0,0,0,1,0,1,1,0
11.399844000,0,0,0,0,0,1,1,0
11.399850000,0,0,0,0,1,1,1,0
11.399946000,0,0,0,0,0,1,1,0
11.399952000,0,0,0,0,1,1,1,0
11.399974000,0,0,0,0,0,1,1,0
11.400002000,0,1,0,0,0,1,1,0
11.400102000,0,0,0,0,0,1,1,0
11.400142000,0,0,1,0,0,1,1,0
11.400716000,0,0,0,0,0,1,1,0
11.400722000,0,0,0,1,0,1,1,0
11.410406000,0,0,0,0,0,1,1,0
11.410410000,0,0,0,0,1,1,1,0
11.410506000,0,0,0,0,0,1,1,0
11.410514000,0,0,0,0,1,1,1,0
11.410534000,0,0,0,0,0,1,1,0
11.410562000,0,1,0,0,0,1,1,0
11.410664000,0,0,0,0,0,1,1,0
11.410702000,0,0,1,0,0,1,1,0
11.411276000,0,0,0,0,0,1,1,0
11.411282000,0,0,0,1,0,1,1,0
11.411466000,0,0,0,0,0,1,1,0
11.411472000,0,0,0,0,1,1,1,0
11.411568000,0,0,0,0,0,1,1,0
11.411574000,0,0,0,0,1,1,1,0
11.411596000,0,0,0,0,0,1,1,0
11.411624000,0,1,0,0,0,1,1,0
11.411726000,0,0,0,0,0,1,1,0
11.411764000,0,0,1,0,0,1,1,0
11.412338000,0,0,0,0,0,1,1,0
11.412344000,0,0,0,1,0,1,1,0
11.413082000,0,0,0,0,0,1,1,0
11.413088000,0,0,0,0,1,1,1,0
11.413184000,0,0,0,0,0,1,1,0
11.413190000,0,0,0,0,1,1,1,0
11.413210000,0,0,0,0,0,1,1,0
11.413240000,0,1,0,0,0,1,1,0
11.413340000,0,0,0,0,0,1,1,0
11.413378000,0,0,1,0,0,1,1,0
11.413954000,0,0,0,0,0,1,1,0
11.413960000,0,0,0,1,0,1,1,0
11.414144000,0,0,0,0,0,1,1,0
11.414148000,0,0,0,0,1,1,1,0
11.414246000,0,0,0,0,0,1,1,0
11.414252000,0,0,0,0,1,1,1,0
11.414272000,0,0,0,0,0,1,1,0
11.414300000,0,1,0,0,0,1,1,0
11.414402000,0,0,0,0,0,1,1,0
11.414440000,0,0,1,0,0,1,1,0
11.415016000,0,0,0,0,0,1,1,0
11.415022000,0,0,0,1,0,1,1,0
11.415760000,0,0,0,0,0,1,1,0
11.415766000,0,0,0,0,1,1,1,0
11.415862000,0,0,0,0,0,1,1,0
11.415868000,0,0,0,0,1,1,1,0
11.415890000,0,0,0,0,0,1,1,0
11.415918000,0,1,0,0,0,1,1,0
11.416020000,0,0,0,0,0,1,1,0
11.416058000,0,0,1,0,0,1,1,0
11.416632000,0,0,0,0,0,1,1,0
11.416638000,0,0,0,1,0,1,1,0
11.427036000,0,0,0,0,0,1,1,0
11.427040000,0,0,0,0,1,1,1,0
11.427138000,0,0,0,0,0,1,1,0
11.427144000,0,0,0,0,1,1,1,0
11.427164000,0,0,0,0,0,1,1,0
11.427192000,0,1,0,0,0,1,1,0
11.427294000,0,0,0,0,0,1,1,0
11.427332000,0,0,1,0,0,1,1,0
11.427908000,0,0,0,0,0,1,1,0
11.427914000,0,0,0,1,0,1,1,0
11.428182000,0,0,0,0,0,1,1,0
11.428188000,0,0,0,0,1,1,1,0
11.428284000,0,0,0,0,0,1,1,0
11.428290000,0,0,0,0,1,1,1,0
11.428310000,0,0,0,0,0,1,1,0
11.428338000,0,1,0,0,0,1,1,0
11.428440000,0,0,0,0,0,1,1,0
11.428478000,0,0,1,0,0,1,1,0
11.429054000,0,0,0,0,0,1,1,0
11.429060000,0,0,0,1,0,1,1,0
11.429244000,0,0,0,0,0,1,1,0
11.429248000,0,0,0,0,1,1,1,0
11.429346000,0,0,0,0,0,1,1,0
11.429352000,0,0,0,0,1,1,1,0
11.429372000,0,0,0,0,0,1,1,0
11.429400000,0,1,0,0,0,1,1,0
11.429502000,0,0,0,0,0,1,1,0
11.429540000,0,0,1,0,0,1,1,0
11.430116000,0,0,0,0,0,1,1,0
11.430122000,0,0,0,1,0,1,1,0
11.430860000,0,0,0,0,0,1,1,0
11.430866000,0,0,0,0,1,1,1,0
11.430962000,0,0,0,0,0,1,1,0
11.430968000,0,0,0,0,1,1,1,0
11.430990000,0,0,0,0,0,1,1,0
11.431018000,0,1,0,0,0,1,1,0
11.431120000,0,0,0,0,0,1,1,0
11.431158000,0,0,1,0,0,1,1,0
11.431732000,0,0,0,0,0,1,1,0
11.431738000,0,0,0,1,0,1,1,0
11.440850000,0,0,0,0,0,1,1,0
11.440854000,0,0,0,0,1,1,1,0
11.440952000,0,0,0,0,0,1,1,0
11.440958000,0,0,0,0,1,1,1,0
11.440978000,0,0,0,0,0,1,1,0
11.441006000,0,1,0,0,0,1,1,0
11.441108000,0,0,0,0,0,1,1,0
11.441146000,0,0,1,0,0,1,1,0
11.441722000,0,0,0,0,0,1,1,0
11.441728000,0,0,0,1,0,1,1,0
11.441912000,0,0,0,0,0,1,1,0
11.441916000,0,0,0,0,1,1,1,0
11.442014000,0,0,0,0,0,1,1,0
11.442020000,0,0,0,0,1,1,1,0
11.442040000,0,0,0,0,0,1,1,0
11.442068000,0,1,0,0,0,1,1,0
11.442170000,0,0,0,0,0,1,1,0
11.442208000,0,0,1,0,0,1,1,0
11.442782000,0,0,0,0,0,1,1,0
11.442788000,0,0,0,1,0,1,1,0
11.443528000,0,0,0,0,0,1,1,0
11.443534000,0,0,0,0,1,1,1,0
11.443630000,0,0,0,0,0,1,1,0
11.443636000,0,0,0,0,1,1,1,0
11.443658000,0,0,0,0,0,1,1,0
11.443686000,0,1,0,0,0,1,1,0
11.443788000,0,0,0,0,0,1,1,0
11.443826000,0,0,1,0,0,1,1,0
11.444400000,0,0,0,0,0,1,1,0
11.444406000,0,0,0,1,0,1,1,0
11.454808000,0,0,0,0,0,1,1,0
11.454812000,0,0,0,0,1,1,1,0
11.454910000,0,0,0,0,0,1,1,0
11.454916000,0,0,0,0,1,1,1,0
11.454936000,0,0,0,0,0,1,1,0
11.454964000,0,1,0,0,0,1,1,0
11.455066000,0,0,0,0,0,1,1,0
11.455104000,0,0,1,0,0,1,1,0
11.455680000,0,0,0,0,0,1,1,0
11.455686000,0,0,0,1,0,1,1,0
11.456032000,0,0,0,0,0,1,1,0
11.456038000,0,0,0,0,1,1,1,0
11.456134000,0,0,0,0,0,1,1,0
11.456140000,0,0,0,0,1,1,1,0
11.456162000,0,0,0,0,0,1,1,0
11.456190000,0,1,0,0,0,1,1,0
11.456292000,0,0,0,0,0,1,1,0
11.456330000,0,0,1,0,0,1,1,0
11.456904000,0,0,0,0,0,1,1,0
11.456910000,0,0,0,1,0,1,1,0
11.471792000,0,0,0,0,0,1,1,0
11.471796000,0,0,0,0,1,1,1,0
11.471894000,0,0,0,0,0,1,1,0
11.471900000,0,0,0,0,1,1,1,0
11.471920000,0,0,0,0,0,1,1,0
11.471948000,0,1,0,0,0,1,1,0
11.472050000,0,0,0,0,0,1,1,0
11.472088000,0,0,1,0,0,1,1,0
11.472664000,0,0,0,0,0,1,1,0
11.472670000,0,0,0,1,0,1,1,0
11.472966000,0,0,0,0,0,1,1,0
11.472972000,0,0,0,0,1,1,1,0
11.473068000,0,0,0,0,0,1,1,0
11.473074000,0,0,0,0,1,1,1,0
11.473096000,0,0,0,0,0,1,1,0
11.473124000,0,1,0,0,0,1,1,0
11.473226000,0,0,0,0,0,1,1,0
11.473264000,0,0,1,0,0,1,1,0
11.473838000,0,0,0,0,0,1,1,0
11.473844000,0,0,0,1,0,1,1,0
11.474028000,0,0,0,0,0,1,1,0
11.474034000,0,0,0,0,1,1,1,0
11.474130000,0,0,0,0,0,1,1,0
11.474136000,0,0,0,0,1,1,1,0
11.474158000,0,0,0,0,0,1,1,0
11.474186000,0,1,0,0,0,1,1,0
11.474288000,0,0,0,0,0,1,1,0
11.474326000,0,0,1,0,0,1,1,0
11.474900000,0,0,0,0,0,1,1,0
11.474906000,0,0,0,1,0,1,1,0
11.475642000,0,0,0,0,0,1,1,0
11.475646000,0,0,0,0,1,1,1,0
11.475744000,0,0,0,0,0,1,1,0
11.475750000,0,0,0,0,1,1,1,0
11.475770000,0,0,0,0,0,1,1,0
11.475798000,0,1,0,0,0,1,1,0
11.475900000,0,0,0,0,0,1,1,0
11.475938000,0,0,1,0,0,1,1,0
11.476514000,0,0,0,0,0,1,1,0
11.476520000,0,0,0,1,0,1,1,0
11.485630000,0,0,0,0,0,1,1,0
11.485636000,0,0,0,0,1,1,1,0
11.485732000,0,0,0,0,0,1,1,0
11.485738000,0,0,0,0,1,1,1,0
11.485760000,0,0,0,0,0,1,1,0
11.485788000,0,1,0,0,0,1,1,0
11.485890000,0,0,0,0,0,1,1,0
11.485928000,0,0,1,0,0,1,1,0
11.486502000,0,0,0,0,0,1,1,0
11.486508000,0,0,0,1,0,1,1,0
11.486692000,0,0,0,0,0,1,1,0
11.486698000,0,0,0,0,1,1,1,0
11.486794000,0,0,0,0,0,1,1,0
11.486800000,0,0,0,0,1,1,1,0
11.486822000,0,0,0,0,0,1,1,0
11.486850000,0,1,0,0,0,1,1,0
11.486952000,0,0,0,0,0,1,1,0
11.486990000,0,0,1,0,0,1,1,0
11.487564000,0,0,0,0,0,1,1,0
11.487570000,0,0,0,1,0,1,1,0
11.488306000,0,0,0,0,0,1,1,0
11.488310000,0,0,0,0,1,1,1,0
11.488408000,0,0,0,0,0,1,1,0
11.488414000,0,0,0,0,1,1,1,0
11.488434000,0,0,0,0,0,1,1,0
11.488462000,0,1,0,0,0,1,1,0
11.488564000,0,0,0,0,0,1,1,0
11.488602000,0,0,1,0,0,1,1,0
11.489178000,0,0,0,0,0,1,1,0
11.489184000,0,0,0,1,0,1,1,0
11.498938000,0,0,0,0,0,1,1,0
11.498942000,0,0,0,0,1,1,1,0
11.499038000,0,0,0,0,0,1,1,0
11.499044000,0,0,0,0,1,1,1,0
11.499066000,0,0,0,0,0,1,1,0
11.499094000,0,1,0,0,0,1,1,0
11.499196000,0,0,0,0,0,1,1,0
11.499234000,0,0,1,0,0,1,1,0
11.499808000,0,0,0,0,0,1,1,0
11.499814000,0,0,0,1,0,1,1,0
11.499998000,0,0,0,0,0,1,1,0
11.500004000,0,0,0,0,1,1,1,0
11.500100000,0,0,0,0,0,1,1,0
11.500106000,0,0,0,0,1,1,1,0
11.500128000,0,0,0,0,0,1,1,0
11.500156000,0,1,0,0,0,1,1,0
11.500258000,0,0,0,0,0,1,1,0
11.500296000,0,0,1,0,0,1,1,0
11.500870000,0,0,0,0,0,1,1,0
11.500876000,0,0,0,1,0,1,1,0
11.501612000,0,0,0,0,0,1,1,0
11.501618000,0,0,0,0,1,1,1,0
11.501714000,0,0,0,0,0,1,1,0
11.501720000,0,0,0,0,1,1,1,0
11.501740000,0,0,0,0,0,1,1,0
11.501770000,0,1,0,0,0,1,1,0
11.501870000,0,0,0,0,0,1,1,0
11.501908000,0,0,1,0,0,1,1,0
11.502484000,0,0,0,0,0,1,1,0
11.502490000,0,0,0,1,0,1,1,0
11.511606000,0,0,0,0,0,1,1,0
11.511610000,0,0,0,0,1,1,1,0
11.511706000,0,0,0,0,0,1,1,0
11.511712000,0,0,0,0,1,1,1,0
11.511734000,0,0,0,0,0,1,1,0
11.511762000,0,1,0,0,0,1,1,0
11.511864000,0,0,0,0,0,1,1,0
11.511902000,0,0,1,0,0,1,1,0
11.512476000,0,0,0,0,0,1,1,0
11.512482000,0,0,0,1,0,1,1,0
11.512666000,0,0,0,0,0,1,1,0
11.512672000,0,0,0,0,1,1,1,0
11.512768000,0,0,0,0,0,1,1,0
11.512774000,0,0,0,0,1,1,1,0
11.512796000,0,0,0,0,0,1,1,0
11.512824000,0,1,0,0,0,1,1,0
11.512926000,0,0,0,0,0,1,1,0
11.512964000,0,0,1,0,0,1,1,0
11.513538000,0,0,0,0,0,1,1,0
11.513544000,0,0,0,1,0,1,1,0
11.514280000,0,0,0,0,0,1,1,0
11.514286000,0,0,0,0,1,1,1,0
11.514382000,0,0,0,0,0,1,1,0
11.514388000,0,0,0,0,1,1,1,0
11.514408000,0,0,0,0,0,1,1,0
11.514438000,0,1,0,0,0,1,1,0
11.514538000,0,0,0,0,0,1,1,0
11.514576000,0,0,1,0,0,1,1,0
11.515152000,0,0,0,0,0,1,1,0
11.515158000,0,0,0,1,0,1,1,0
11.525572000,0,0,0,0,0,1,1,0
11.525576000,0,0,0,0,1,1,1,0
11.525672000,0,0,0,0,0,1,1,0
11.525678000,0,0,0,0,1,1,1,0
11.525700000,0,0,0,0,0,1,1,0
11.525728000,0,1,0,0,0,1,1,0
11.525830000,0,0,0,0,0,1,1,0
11.525868000,0,0,1,0,0,1,1,0
11.526442000,0,0,0,0,0,1,1,0
11.526448000,0,0,0,1,0,1,1,0
11.526798000,0,0,0,0,0,1,1,0
11.526802000,0,0,0,0,1,1,1,0
11.526900000,0,0,0,0,0,1,1,0
11.526906000,0,0,0,0,1,1,1,0
11.526926000,0,0,0,0,0,1,1,0
11.526954000,0,1,0,0,0,1,1,0
11.527056000,0,0,0,0,0,1,1,0
11.527094000,0,0,1,0,0,1,1,0
11.527670000,0,0,0,0,0,1,1,0
11.527676000,0,0,0,1,0,1,1,0
11.541392000,0,0,0,0,0,1,1,0
11.541396000,0,0,0,0,1,1,1,0
11.541492000,0,0,0,0,0,1,1,0
11.541498000,0,0,0,0,1,1,1,0
11.541520000,0,0,0,0,0,1,1,0
11.541548000,0,1,0,0,0,1,1,0
11.541650000,0,0,0,0,0,1,1,0
11.541688000,0,0,1,0,0,1,1,0
11.542262000,0,0,0,0,0,1,1,0
11.542268000,0,0,0,1,0,1,1,0
11.542566000,0,0,0,0,0,1,1,0
11.542572000,0,0,0,0,1,1,1,0
11.542668000,0,0,0,0,0,1,1,0
11.542674000,0,0,0,0,1,1,1,0
11.542696000,0,0,0,0,0,1,1,0
11.542724000,0,1,0,0,0,1,1,0
11.542826000,0,0,0,0,0,1,1,0
11.542864000,0,0,1,0,0,1,1,0
11.543438000,0,0,0,0,0,1,1,0
11.543444000,0,0,0,1,0,1,1,0
11.543628000,0,0,0,0,0,1,1,0
11.543634000,0,0,0,0,1,1,1,0
11.543730000,0,0,0,0,0,1,1,0
11.543736000,0,0,0,0,1,1,1,0
11.543758000,0,0,0,0,0,1,1,0
11.543786000,0,1,0,0,0,1,1,0
