Time [s],Channel 0,Channel 1,Channel 2,Channel 3,Channel 4,Channel 5,Channel 6,Channel 7
6.898785276,0,0,1,0,0,1,1,1
6.900922000,0,0,0,0,0,1,1,1
6.900926000,0,0,0,1,0,1,1,1
6.901050000,0,0,0,0,0,1,1,1
6.901056000,0,0,0,0,1,1,1,1
6.901154000,0,0,0,0,0,1,1,1
6.901158000,0,0,0,0,1,1,1,1
6.901180000,0,0,0,0,0,1,1,1
6.901208000,0,1,0,0,0,1,1,1
6.901312000,0,0,0,0,0,1,1,1
6.901350000,0,0,1,0,0,1,1,1
6.907180000,0,0,0,0,0,1,1,1
6.907186000,0,0,0,1,0,1,1,1
6.907340000,0,0,0,0,0,1,1,1
6.907346000,0,0,0,0,1,1,1,1
6.907442000,0,0,0,0,0,1,1,1
6.907448000,0,0,0,0,1,1,1,1
6.907470000,0,0,0,0,0,1,1,1
6.907498000,0,1,0,0,0,1,1,1
6.907602000,0,0,0,0,0,1,1,1
6.907640000,0,0,1,0,0,1,1,1
6.913470000,0,0,0,0,0,1,1,1
6.913476000,0,0,0,1,0,1,1,1
6.913640000,0,0,0,0,0,1,1,1
6.913646000,0,0,0,0,1,1,1,1
6.913742000,0,0,0,0,0,1,1,1
6.913748000,0,0,0,0,1,1,1,1
6.913770000,0,0,0,0,0,1,1,1
6.913798000,0,1,0,0,0,1,1,1
6.913902000,0,0,0,0,0,1,1,1
6.913940000,0,0,1,0,0,1,1,1
6.919770000,0,0,0,0,0,1,1,1
6.919776000,0,0,0,1,0,1,1,1
6.919900000,0,0,0,0,0,1,1,1
6.919906000,0,0,0,0,1,1,1,1
6.920002000,0,0,0,0,0,1,1,1
6.920006000,0,0,0,0,1,1,1,1
6.920030000,0,0,0,0,0,1,1,1
6.920058000,0,1,0,0,0,1,1,1
6.920160000,0,0,0,0,0,1,1,1
6.920200000,0,0,1,0,0,1,1,1
6.926030000,0,0,0,0,0,1,1,1
6.926036000,0,0,0,1,0,1,1,1
6.926190000,0,0,0,0,0,1,1,1
6.926196000,0,0,0,0,1,1,1,1
6.926294000,0,0,0,0,0,1,1,1
6.926298000,0,0,0,0,1,1,1,1
6.926320000,0,0,0,0,0,1,1,1
6.926348000,0,1,0,0,0,1,1,1
6.926452000,0,0,0,0,0,1,1,1
6.926490000,0,0,1,0,0,1,1,1
6.932320000,0,0,0,0,0,1,1,1
6.932326000,0,0,0,1,0,1,1,1
6.932488000,0,0,0,0,0,1,1,1
6.932494000,0,0,0,0,1,1,1,1
6.932590000,0,0,0,0,0,1,1,1
6.932596000,0,0,0,0,1,1,1,1
6.932618000,0,0,0,0,0,1,1,1
6.932646000,0,1,0,0,0,1,1,1
6.932750000,0,0,0,0,0,1,1,1
6.932788000,0,0,1,0,0,1,1,1
6.938618000,0,0,0,0,0,1,1,1
6.938624000,0,0,0,1,0,1,1,1
6.938748000,0,0,0,0,0,1,1,1
6.938754000,0,0,0,0,1,1,1,1
6.938850000,0,0,0,0,0,1,1,1
6.938856000,0,0,0,0,1,1,1,1
6.938878000,0,0,0,0,0,1,1,1
6.938906000,0,1,0,0,0,1,1,1
6.939010000,0,0,0,0,0,1,1,1
6.939048000,0,0,1,0,0,1,1,1
6.944878000,0,0,0,0,0,1,1,1
6.944882000,0,0,0,1,0,1,1,1
6.945036000,0,0,0,0,0,1,1,1
6.945042000,0,0,0,0,1,1,1,1
6.945140000,0,0,0,0,0,1,1,1
6.945144000,0,0,0,0,1,1,1,1
6.945166000,0,0,0,0,0,1,1,1
6.945194000,0,1,0,0,0,1,1,1
6.945298000,0,0,0,0,0,1,1,1
6.945336000,0,0,1,0,0,1,1,1
6.951168000,0,0,0,0,0,1,1,1
6.951172000,0,0,0,1,0,1,1,1
6.951336000,0,0,0,0,0,1,1,1
6.951342000,0,0,0,0,1,1,1,1
6.951440000,0,0,0,0,0,1,1,1
6.951444000,0,0,0,0,1,1,1,1
6.951466000,0,0,0,0,0,1,1,1
6.951494000,0,1,0,0,0,1,1,1
6.951598000,0,0,0,0,0,1,1,1
6.951636000,0,0,1,0,0,1,1,1
6.957466000,0,0,0,0,0,1,1,1
6.957472000,0,0,0,1,0,1,1,1
6.957596000,0,0,0,0,0,1,1,1
6.957602000,0,0,0,0,1,1,1,1
6.957698000,0,0,0,0,0,1,1,1
6.957702000,0,0,0,0,1,1,1,1
6.957726000,0,0,0,0,0,1,1,1
6.957754000,0,1,0,0,0,1,1,1
6.957858000,0,0,0,0,0,1,1,1
6.957896000,0,0,1,0,0,1,1,1
6.963726000,0,0,0,0,0,1,1,1
6.963732000,0,0,0,1,0,1,1,1
6.963886000,0,0,0,0,0,1,1,1
6.963892000,0,0,0,0,1,1,1,1
6.963988000,0,0,0,0,0,1,1,1
6.963994000,0,0,0,0,1,1,1,1
6.964016000,0,0,0,0,0,1,1,1
6.964044000,0,1,0,0,0,1,1,1
6.964148000,0,0,0,0,0,1,1,1
6.964186000,0,0,1,0,0,1,1,1
6.970016000,0,0,0,0,0,1,1,1
6.970022000,0,0,0,1,0,1,1,1
6.970184000,0,0,0,0,0,1,1,1
6.970190000,0,0,0,0,1,1,1,1
6.970286000,0,0,0,0,0,1,1,1
6.970292000,0,0,0,0,1,1,1,1
6.970314000,0,0,0,0,0,1,1,1
6.970342000,0,1,0,0,0,1,1,1
6.970446000,0,0,0,0,0,1,1,1
6.970484000,0,0,1,0,0,1,1,1
6.976314000,0,0,0,0,0,1,1,1
6.976320000,0,0,0,1,0,1,1,1
6.976444000,0,0,0,0,0,1,1,1
6.976450000,0,0,0,0,1,1,1,1
6.976546000,0,0,0,0,0,1,1,1
6.976550000,0,0,0,0,1,1,1,1
6.976574000,0,0,0,0,0,1,1,1
6.976602000,0,1,0,0,0,1,1,1
6.976704000,0,0,0,0,0,1,1,1
6.976744000,0,0,1,0,0,1,1,1
6.982574000,0,0,0,0,0,1,1,1
6.982578000,0,0,0,1,0,1,1,1
6.982732000,0,0,0,0,0,1,1,1
6.982738000,0,0,0,0,1,1,1,1
6.982834000,0,0,0,0,0,1,1,1
6.982840000,0,0,0,0,1,1,1,1
6.982862000,0,0,0,0,0,1,1,1
6.982890000,0,1,0,0,0,1,1,1
6.982994000,0,0,0,0,0,1,1,1
6.983032000,0,0,1,0,0,1,1,1
6.988864000,0,0,0,0,0,1,1,1
6.988868000,0,0,0,1,0,1,1,1
6.989032000,0,0,0,0,0,1,1,1
6.989038000,0,0,0,0,1,1,1,1
6.989136000,0,0,0,0,0,1,1,1
6.989140000,0,0,0,0,1,1,1,1
6.989162000,0,0,0,0,0,1,1,1
6.989190000,0,1,0,0,0,1,1,1
6.989294000,0,0,0,0,0,1,1,1
6.989332000,0,0,1,0,0,1,1,1
6.995162000,0,0,0,0,0,1,1,1
6.995168000,0,0,0,1,0,1,1,1
6.995292000,0,0,0,0,0,1,1,1
6.995298000,0,0,0,0,1,1,1,1
6.995394000,0,0,0,0,0,1,1,1
6.995400000,0,0,0,0,1,1,1,1
6.995422000,0,0,0,0,0,1,1,1
6.995450000,0,1,0,0,0,1,1,1
6.995554000,0,0,0,0,0,1,1,1
6.995592000,0,0,1,0,0,1,1,1
7.001424000,0,0,0,0,0,1,1,1
7.001428000,0,0,0,1,0,1,1,1
7.001584000,0,0,0,0,0,1,1,1
7.001590000,0,0,0,0,1,1,1,1
7.001686000,0,0,0,0,0,1,1,1
7.001690000,0,0,0,0,1,1,1,1
7.001714000,0,0,0,0,0,1,1,1
7.001742000,0,1,0,0,0,1,1,1
7.001844000,0,0,0,0,0,1,1,1
7.001884000,0,0,1,0,0,1,1,1
7.007714000,0,0,0,0,0,1,1,1
7.007718000,0,0,0,1,0,1,1,1
7.007880000,0,0,0,0,0,1,1,1
7.007886000,0,0,0,0,1,1,1,1
7.007984000,0,0,0,0,0,1,1,1
7.007988000,0,0,0,0,1,1,1,1
7.008010000,0,0,0,0,0,1,1,1
7.008038000,0,1,0,0,0,1,1,1
7.008142000,0,0,0,0,0,1,1,1
7.008180000,0,0,1,0,0,1,1,1
7.014012000,0,0,0,0,0,1,1,1
7.014016000,0,0,0,1,0,1,1,1
7.014140000,0,0,0,0,0,1,1,1
7.014146000,0,0,0,0,1,1,1,1
7.014244000,0,0,0,0,0,1,1,1
7.014248000,0,0,0,0,1,1,1,1
7.014270000,0,0,0,0,0,1,1,1
7.014298000,0,1,0,0,0,1,1,1
7.014402000,0,0,0,0,0,1,1,1
7.014440000,0,0,1,0,0,1,1,1
7.020270000,0,0,0,0,0,1,1,1
7.020276000,0,0,0,1,0,1,1,1
7.020480000,0,0,0,0,0,1,1,1
7.020486000,0,0,0,0,1,1,1,1
7.020582000,0,0,0,0,0,1,1,1
7.020586000,0,0,0,0,1,1,1,1
7.020610000,0,0,0,0,0,1,1,1
7.020638000,0,1,0,0,0,1,1,1
7.020740000,0,0,0,0,0,1,1,1
7.020780000,0,0,1,0,0,1,1,1
7.026610000,0,0,0,0,0,1,1,1
7.026616000,0,0,0,1,0,1,1,1
7.026738000,0,0,0,0,0,1,1,1
7.026744000,0,0,0,0,1,1,1,1
7.026840000,0,0,0,0,0,1,1,1
7.026846000,0,0,0,0,1,1,1,1
7.026868000,0,0,0,0,0,1,1,1
7.026896000,0,1,0,0,0,1,1,1
7.027000000,0,0,0,0,0,1,1,1
7.027038000,0,0,1,0,0,1,1,1
7.032868000,0,0,0,0,0,1,1,1
7.032872000,0,0,0,1,0,1,1,1
7.032970000,0,0,0,0,0,1,1,1
7.032976000,0,0,0,0,1,1,1,1
7.033074000,0,0,0,0,0,1,1,1
7.033078000,0,0,0,0,1,1,1,1
7.033100000,0,0,0,0,0,1,1,1
7.033128000,0,1,0,0,0,1,1,1
7.033232000,0,0,0,0,0,1,1,1
7.033270000,0,0,1,0,0,1,1,1
7.039102000,0,0,0,0,0,1,1,1
7.039106000,0,0,0,1,0,1,1,1
7.039436000,0,0,0,0,0,1,1,1
7.039442000,0,0,0,0,1,1,1,1
7.039540000,0,0,0,0,0,1,1,1
7.039544000,0,0,0,0,1,1,1,1
7.039566000,0,0,0,0,0,1,1,1
7.039594000,0,1,0,0,0,1,1,1
7.039698000,0,0,0,0,0,1,1,1
7.039736000,0,0,1,0,0,1,1,1
7.045568000,0,0,0,0,0,1,1,1
7.045572000,0,0,0,1,0,1,1,1
7.045736000,0,0,0,0,0,1,1,1
7.045742000,0,0,0,0,1,1,1,1
7.045840000,0,0,0,0,0,1,1,1
7.045844000,0,0,0,0,1,1,1,1
7.045866000,0,0,0,0,0,1,1,1
7.045894000,0,1,0,0,0,1,1,1
7.045998000,0,0,0,0,0,1,1,1
7.046036000,0,0,1,0,0,1,1,1
7.051868000,0,0,0,0,0,1,1,1
7.051872000,0,0,0,1,0,1,1,1
7.052004000,0,0,0,0,0,1,1,1
7.052010000,0,0,0,0,1,1,1,1
7.052106000,0,0,0,0,0,1,1,1
7.052112000,0,0,0,0,1,1,1,1
7.052134000,0,0,0,0,0,1,1,1
7.052162000,0,1,0,0,0,1,1,1
7.052266000,0,0,0,0,0,1,1,1
7.052304000,0,0,1,0,0,1,1,1
7.058134000,0,0,0,0,0,1,1,1
7.058140000,0,0,0,1,0,1,1,1
7.058268000,0,0,0,0,0,1,1,1
7.058274000,0,0,0,0,1,1,1,1
7.058370000,0,0,0,0,0,1,1,1
7.058376000,0,0,0,0,1,1,1,1
7.058398000,0,0,0,0,0,1,1,1
7.058426000,0,1,0,0,0,1,1,1
7.058530000,0,0,0,0,0,1,1,1
7.058568000,0,0,1,0,0,1,1,1
7.064400000,0,0,0,0,0,1,1,1
7.064404000,0,0,0,1,0,1,1,1
7.064532000,0,0,0,0,0,1,1,1
7.064538000,0,0,0,0,1,1,1,1
7.064636000,0,0,0,0,0,1,1,1
7.064640000,0,0,0,0,1,1,1,1
7.064662000,0,0,0,0,0,1,1,1
7.064690000,0,1,0,0,0,1,1,1
7.064794000,0,0,0,0,0,1,1,1
7.064832000,0,0,1,0,0,1,1,1
7.070664000,0,0,0,0,0,1,1,1
7.070668000,0,0,0,1,0,1,1,1
7.070792000,0,0,0,0,0,1,1,1
7.070798000,0,0,0,0,1,1,1,1
7.070894000,0,0,0,0,0,1,1,1
7.070900000,0,0,0,0,1,1,1,1
7.070922000,0,0,0,0,0,1,1,1
7.070950000,0,1,0,0,0,1,1,1
7.071054000,0,0,0,0,0,1,1,1
7.071092000,0,0,1,0,0,1,1,1
7.076922000,0,0,0,0,0,1,1,1
7.076928000,0,0,0,1,0,1,1,1
7.077258000,0,0,0,0,0,1,1,1
7.077264000,0,0,0,0,1,1,1,1
7.077360000,0,0,0,0,0,1,1,1
7.077366000,0,0,0,0,1,1,1,1
7.077388000,0,0,0,0,0,1,1,1
7.077416000,0,1,0,0,0,1,1,1
7.077520000,0,0,0,0,0,1,1,1
7.077558000,0,0,1,0,0,1,1,1
7.083388000,0,0,0,0,0,1,1,1
7.083392000,0,0,0,1,0,1,1,1
7.083556000,0,0,0,0,0,1,1,1
7.083562000,0,0,0,0,1,1,1,1
7.083658000,0,0,0,0,0,1,1,1
7.083664000,0,0,0,0,1,1,1,1
7.083686000,0,0,0,0,0,1,1,1
7.083714000,0,1,0,0,0,1,1,1
7.083818000,0,0,0,0,0,1,1,1
7.083856000,0,0,1,0,0,1,1,1
7.089688000,0,0,0,0,0,1,1,1
7.089692000,0,0,0,1,0,1,1,1
7.089816000,0,0,0,0,0,1,1,1
7.089822000,0,0,0,0,1,1,1,1
7.089918000,0,0,0,0,0,1,1,1
7.089924000,0,0,0,0,1,1,1,1
7.089946000,0,0,0,0,0,1,1,1
7.089974000,0,1,0,0,0,1,1,1
7.090078000,0,0,0,0,0,1,1,1
7.090116000,0,0,1,0,0,1,1,1
7.095946000,0,0,0,0,0,1,1,1
7.095952000,0,0,0,1,0,1,1,1
7.096280000,0,0,0,0,0,1,1,1
7.096286000,0,0,0,0,1,1,1,1
7.096382000,0,0,0,0,0,1,1,1
7.096388000,0,0,0,0,1,1,1,1
7.096410000,0,0,0,0,0,1,1,1
7.096438000,0,1,0,0,0,1,1,1
7.096542000,0,0,0,0,0,1,1,1
7.096580000,0,0,1,0,0,1,1,1
7.102412000,0,0,0,0,0,1,1,1
7.102416000,0,0,0,1,0,1,1,1
7.102578000,0,0,0,0,0,1,1,1
7.102584000,0,0,0,0,1,1,1,1
7.102682000,0,0,0,0,0,1,1,1
7.102686000,0,0,0,0,1,1,1,1
7.102708000,0,0,0,0,0,1,1,1
7.102736000,0,1,0,0,0,1,1,1
7.102840000,0,0,0,0,0,1,1,1
7.102878000,0,0,1,0,0,1,1,1
7.108708000,0,0,0,0,0,1,1,1
7.108714000,0,0,0,1,0,1,1,1
7.108838000,0,0,0,0,0,1,1,1
7.108844000,0,0,0,0,1,1,1,1
7.108940000,0,0,0,0,0,1,1,1
7.108944000,0,0,0,0,1,1,1,1
7.108968000,0,0,0,0,0,1,1,1
7.108996000,0,1,0,0,0,1,1,1
7.109098000,0,0,0,0,0,1,1,1
7.109138000,0,0,1,0,0,1,1,1
7.114968000,0,0,0,0,0,1,1,1
7.114974000,0,0,0,1,0,1,1,1
7.115304000,0,0,0,0,0,1,1,1
7.115310000,0,0,0,0,1,1,1,1
7.115406000,0,0,0,0,0,1,1,1
7.115412000,0,0,0,0,1,1,1,1
7.115434000,0,0,0,0,0,1,1,1
7.115462000,0,1,0,0,0,1,1,1
7.115566000,0,0,0,0,0,1,1,1
7.115604000,0,0,1,0,0,1,1,1
7.121434000,0,0,0,0,0,1,1,1
7.121438000,0,0,0,1,0,1,1,1
7.121602000,0,0,0,0,0,1,1,1
7.121608000,0,0,0,0,1,1,1,1
7.121704000,0,0,0,0,0,1,1,1
7.121710000,0,0,0,0,1,1,1,1
7.121732000,0,0,0,0,0,1,1,1
7.121760000,0,1,0,0,0,1,1,1
7.121864000,0,0,0,0,0,1,1,1
7.121902000,0,0,1,0,0,1,1,1
7.127734000,0,0,0,0,0,1,1,1
7.127738000,0,0,0,1,0,1,1,1
7.127862000,0,0,0,0,0,1,1,1
7.127868000,0,0,0,0,1,1,1,1
7.127964000,0,0,0,0,0,1,1,1
7.127970000,0,0,0,0,1,1,1,1
7.127992000,0,0,0,0,0,1,1,1
7.128020000,0,1,0,0,0,1,1,1
7.128124000,0,0,0,0,0,1,1,1
7.128162000,0,0,1,0,0,1,1,1
7.133992000,0,0,0,0,0,1,1,1
7.133998000,0,0,0,1,0,1,1,1
7.134326000,0,0,0,0,0,1,1,1
7.134332000,0,0,0,0,1,1,1,1
7.134428000,0,0,0,0,0,1,1,1
7.134434000,0,0,0,0,1,1,1,1
7.134456000,0,0,0,0,0,1,1,1
7.134484000,0,1,0,0,0,1,1,1
7.134588000,0,0,0,0,0,1,1,1
7.134626000,0,0,1,0,0,1,1,1
7.140458000,0,0,0,0,0,1,1,1
7.140462000,0,0,0,1,0,1,1,1
7.140624000,0,0,0,0,0,1,1,1
7.140630000,0,0,0,0,1,1,1,1
7.140728000,0,0,0,0,0,1,1,1
7.140732000,0,0,0,0,1,1,1,1
7.140754000,0,0,0,0,0,1,1,1
7.140782000,0,1,0,0,0,1,1,1
7.140886000,0,0,0,0,0,1,1,1
7.140924000,0,0,1,0,0,1,1,1
7.146754000,0,0,0,0,0,1,1,1
7.146760000,0,0,0,1,0,1,1,1
7.146884000,0,0,0,0,0,1,1,1
7.146890000,0,0,0,0,1,1,1,1
7.146986000,0,0,0,0,0,1,1,1
7.146992000,0,0,0,0,1,1,1,1
7.147014000,0,0,0,0,0,1,1,1
7.147042000,0,1,0,0,0,1,1,1
7.147146000,0,0,0,0,0,1,1,1
7.147184000,0,0,1,0,0,1,1,1
7.153014000,0,0,0,0,0,1,1,1
7.153020000,0,0,0,1,0,1,1,1
7.153350000,0,0,0,0,0,1,1,1
7.153356000,0,0,0,0,1,1,1,1
7.153452000,0,0,0,0,0,1,1,1
7.153458000,0,0,0,0,1,1,1,1
7.153480000,0,0,0,0,0,1,1,1
7.153508000,0,1,0,0,0,1,1,1
7.153612000,0,0,0,0,0,1,1,1
7.153650000,0,0,1,0,0,1,1,1
7.159480000,0,0,0,0,0,1,1,1
7.159486000,0,0,0,1,0,1,1,1
7.159648000,0,0,0,0,0,1,1,1
7.159654000,0,0,0,0,1,1,1,1
7.159752000,0,0,0,0,0,1,1,1
7.159756000,0,0,0,0,1,1,1,1
7.159778000,0,0,0,0,0,1,1,1
7.159806000,0,1,0,0,0,1,1,1
7.159910000,0,0,0,0,0,1,1,1
7.159948000,0,0,1,0,0,1,1,1
7.165780000,0,0,0,0,0,1,1,1
7.165784000,0,0,0,1,0,1,1,1
7.165908000,0,0,0,0,0,1,1,1
7.165914000,0,0,0,0,1,1,1,1
7.166012000,0,0,0,0,0,1,1,1
7.166016000,0,0,0,0,1,1,1,1
7.166038000,0,0,0,0,0,1,1,1
7.166066000,0,1,0,0,0,1,1,1
7.166170000,0,0,0,0,0,1,1,1
7.166208000,0,0,1,0,0,1,1,1
7.172038000,0,0,0,0,0,1,1,1
7.172044000,0,0,0,1,0,1,1,1
7.172372000,0,0,0,0,0,1,1,1
7.172378000,0,0,0,0,1,1,1,1
7.172476000,0,0,0,0,0,1,1,1
7.172480000,0,0,0,0,1,1,1,1
7.172502000,0,0,0,0,0,1,1,1
7.172530000,0,1,0,0,0,1,1,1
7.172634000,0,0,0,0,0,1,1,1
7.172672000,0,0,1,0,0,1,1,1
7.178504000,0,0,0,0,0,1,1,1
7.178510000,0,0,0,1,0,1,1,1
7.178672000,0,0,0,0,0,1,1,1
7.178678000,0,0,0,0,1,1,1,1
7.178774000,0,0,0,0,0,1,1,1
7.178778000,0,0,0,0,1,1,1,1
7.178802000,0,0,0,0,0,1,1,1
7.178830000,0,1,0,0,0,1,1,1
7.178932000,0,0,0,0,0,1,1,1
7.178972000,0,0,1,0,0,1,1,1
7.184802000,0,0,0,0,0,1,1,1
7.184806000,0,0,0,1,0,1,1,1
7.184930000,0,0,0,0,0,1,1,1
7.184936000,0,0,0,0,1,1,1,1
7.185032000,0,0,0,0,0,1,1,1
7.185038000,0,0,0,0,1,1,1,1
7.185060000,0,0,0,0,0,1,1,1
7.185088000,0,1,0,0,0,1,1,1
7.185192000,0,0,0,0,0,1,1,1
7.185230000,0,0,1,0,0,1,1,1
7.191062000,0,0,0,0,0,1,1,1
7.191066000,0,0,0,1,0,1,1,1
7.191396000,0,0,0,0,0,1,1,1
7.191402000,0,0,0,0,1,1,1,1
7.191500000,0,0,0,0,0,1,1,1
7.191504000,0,0,0,0,1,1,1,1
7.191526000,0,0,0,0,0,1,1,1
7.191554000,0,1,0,0,0,1,1,1
7.191658000,0,0,0,0,0,1,1,1
7.191696000,0,0,1,0,0,1,1,1
7.197526000,0,0,0,0,0,1,1,1
7.197532000,0,0,0,1,0,1,1,1
7.197694000,0,0,0,0,0,1,1,1
7.197700000,0,0,0,0,1,1,1,1
7.197798000,0,0,0,0,0,1,1,1
7.197802000,0,0,0,0,1,1,1,1
7.197824000,0,0,0,0,0,1,1,1
7.197852000,0,1,0,0,0,1,1,1
7.197956000,0,0,0,0,0,1,1,1
7.197994000,0,0,1,0,0,1,1,1
7.203826000,0,0,0,0,0,1,1,1
7.203830000,0,0,0,1,0,1,1,1
7.203954000,0,0,0,0,0,1,1,1
7.203960000,0,0,0,0,1,1,1,1
7.204058000,0,0,0,0,0,1,1,1
7.204062000,0,0,0,0,1,1,1,1
7.204084000,0,0,0,0,0,1,1,1
7.204112000,0,1,0,0,0,1,1,1
7.204216000,0,0,0,0,0,1,1,1
7.204254000,0,0,1,0,0,1,1,1
7.210086000,0,0,0,0,0,1,1,1
7.210090000,0,0,0,1,0,1,1,1
7.210420000,0,0,0,0,0,1,1,1
7.210426000,0,0,0,0,1,1,1,1
7.210522000,0,0,0,0,0,1,1,1
7.210526000,0,0,0,0,1,1,1,1
7.210550000,0,0,0,0,0,1,1,1
7.210578000,0,1,0,0,0,1,1,1
7.210680000,0,0,0,0,0,1,1,1
7.210720000,0,0,1,0,0,1,1,1
7.216550000,0,0,0,0,0,1,1,1
7.216556000,0,0,0,1,0,1,1,1
7.216718000,0,0,0,0,0,1,1,1
7.216724000,0,0,0,0,1,1,1,1
7.216820000,0,0,0,0,0,1,1,1
7.216826000,0,0,0,0,1,1,1,1
7.216848000,0,0,0,0,0,1,1,1
7.216876000,0,1,0,0,0,1,1,1
7.216980000,0,0,0,0,0,1,1,1
7.217018000,0,0,1,0,0,1,1,1
7.222848000,0,0,0,0,0,1,1,1
7.222852000,0,0,0,1,0,1,1,1
7.222976000,0,0,0,0,0,1,1,1
7.222982000,0,0,0,0,1,1,1,1
7.223080000,0,0,0,0,0,1,1,1
7.223084000,0,0,0,0,1,1,1,1
7.223106000,0,0,0,0,0,1,1,1
7.223134000,0,1,0,0,0,1,1,1
7.223238000,0,0,0,0,0,1,1,1
7.223276000,0,0,1,0,0,1,1,1
7.229108000,0,0,0,0,0,1,1,1
7.229112000,0,0,0,1,0,1,1,1
7.229444000,0,0,0,0,0,1,1,1
7.229450000,0,0,0,0,1,1,1,1
7.229546000,0,0,0,0,0,1,1,1
7.229550000,0,0,0,0,1,1,1,1
7.229572000,0,0,0,0,0,1,1,1
7.229602000,0,1,0,0,0,1,1,1
7.229704000,0,0,0,0,0,1,1,1
7.229744000,0,0,1,0,0,1,1,1
7.235574000,0,0,0,0,0,1,1,1
7.235578000,0,0,0,1,0,1,1,1
7.235742000,0,0,0,0,0,1,1,1
7.235748000,0,0,0,0,1,1,1,1
7.235844000,0,0,0,0,0,1,1,1
7.235850000,0,0,0,0,1,1,1,1
7.235872000,0,0,0,0,0,1,1,1
7.235900000,0,1,0,0,0,1,1,1
7.236004000,0,0,0,0,0,1,1,1
7.236042000,0,0,1,0,0,1,1,1
7.241874000,0,0,0,0,0,1,1,1
7.241878000,0,0,0,1,0,1,1,1
7.242002000,0,0,0,0,0,1,1,1
7.242008000,0,0,0,0,1,1,1,1
7.242104000,0,0,0,0,0,1,1,1
7.242110000,0,0,0,0,1,1,1,1
7.242132000,0,0,0,0,0,1,1,1
7.242160000,0,1,0,0,0,1,1,1
7.242264000,0,0,0,0,0,1,1,1
7.242302000,0,0,1,0,0,1,1,1
7.248132000,0,0,0,0,0,1,1,1
7.248138000,0,0,0,1,0,1,1,1
7.248466000,0,0,0,0,0,1,1,1
7.248472000,0,0,0,0,1,1,1,1
7.248568000,0,0,0,0,0,1,1,1
7.248574000,0,0,0,0,1,1,1,1
7.248596000,0,0,0,0,0,1,1,1
7.248624000,0,1,0,0,0,1,1,1
7.248728000,0,0,0,0,0,1,1,1
7.248766000,0,0,1,0,0,1,1,1
7.254598000,0,0,0,0,0,1,1,1
7.254602000,0,0,0,1,0,1,1,1
7.254764000,0,0,0,0,0,1,1,1
7.254770000,0,0,0,0,1,1,1,1
7.254868000,0,0,0,0,0,1,1,1
7.254872000,0,0,0,0,1,1,1,1
7.254894000,0,0,0,0,0,1,1,1
7.254922000,0,1,0,0,0,1,1,1
7.255026000,0,0,0,0,0,1,1,1
7.255064000,0,0,1,0,0,1,1,1
7.260894000,0,0,0,0,0,1,1,1
7.260900000,0,0,0,1,0,1,1,1
7.261024000,0,0,0,0,0,1,1,1
7.261030000,0,0,0,0,1,1,1,1
7.261126000,0,0,0,0,0,1,1,1
7.261132000,0,0,0,0,1,1,1,1
7.261154000,0,0,0,0,0,1,1,1
7.261182000,0,1,0,0,0,1,1,1
7.261286000,0,0,0,0,0,1,1,1
7.261324000,0,0,1,0,0,1,1,1
7.267154000,0,0,0,0,0,1,1,1
7.267160000,0,0,0,1,0,1,1,1
7.267490000,0,0,0,0,0,1,1,1
7.267496000,0,0,0,0,1,1,1,1
7.267592000,0,0,0,0,0,1,1,1
7.267598000,0,0,0,0,1,1,1,1
7.267620000,0,0,0,0,0,1,1,1
7.267648000,0,1,0,0,0,1,1,1
7.267752000,0,0,0,0,0,1,1,1
7.267790000,0,0,1,0,0,1,1,1
7.273620000,0,0,0,0,0,1,1,1
7.273626000,0,0,0,1,0,1,1,1
7.273788000,0,0,0,0,0,1,1,1
7.273794000,0,0,0,0,1,1,1,1
7.273890000,0,0,0,0,0,1,1,1
7.273896000,0,0,0,0,1,1,1,1
7.273918000,0,0,0,0,0,1,1,1
7.273946000,0,1,0,0,0,1,1,1
7.274050000,0,0,0,0,0,1,1,1
7.274088000,0,0,1,0,0,1,1,1
7.279920000,0,0,0,0,0,1,1,1
7.279924000,0,0,0,1,0,1,1,1
7.280048000,0,0,0,0,0,1,1,1
7.280054000,0,0,0,0,1,1,1,1
7.280150000,0,0,0,0,0,1,1,1
7.280156000,0,0,0,0,1,1,1,1
7.280178000,0,0,0,0,0,1,1,1
7.280206000,0,1,0,0,0,1,1,1
7.280310000,0,0,0,0,0,1,1,1
7.280348000,0,0,1,0,0,1,1,1
7.286178000,0,0,0,0,0,1,1,1
7.286184000,0,0,0,1,0,1,1,1
7.286512000,0,0,0,0,0,1,1,1
7.286518000,0,0,0,0,1,1,1,1
7.286616000,0,0,0,0,0,1,1,1
7.286620000,0,0,0,0,1,1,1,1
7.286642000,0,0,0,0,0,1,1,1
7.286670000,0,1,0,0,0,1,1,1
7.286774000,0,0,0,0,0,1,1,1
7.286812000,0,0,1,0,0,1,1,1
7.292644000,0,0,0,0,0,1,1,1
7.292648000,0,0,0,1,0,1,1,1
7.292810000,0,0,0,0,0,1,1,1
7.292816000,0,0,0,0,1,1,1,1
7.292914000,0,0,0,0,0,1,1,1
7.292918000,0,0,0,0,1,1,1,1
7.292940000,0,0,0,0,0,1,1,1
7.292968000,0,1,0,0,0,1,1,1
7.293072000,0,0,0,0,0,1,1,1
7.293110000,0,0,1,0,0,1,1,1
7.298942000,0,0,0,0,0,1,1,1
7.298946000,0,0,0,1,0,1,1,1
7.299070000,0,0,0,0,0,1,1,1
7.299076000,0,0,0,0,1,1,1,1
7.299172000,0,0,0,0,0,1,1,1
7.299178000,0,0,0,0,1,1,1,1
7.299200000,0,0,0,0,0,1,1,1
7.299228000,0,1,0,0,0,1,1,1
7.299332000,0,0,0,0,0,1,1,1
7.299370000,0,0,1,0,0,1,1,1
7.305202000,0,0,0,0,0,1,1,1
7.305206000,0,0,0,1,0,1,1,1
7.305536000,0,0,0,0,0,1,1,1
7.305542000,0,0,0,0,1,1,1,1
7.305640000,0,0,0,0,0,1,1,1
7.305644000,0,0,0,0,1,1,1,1
7.305666000,0,0,0,0,0,1,1,1
7.305694000,0,1,0,0,0,1,1,1
7.305798000,0,0,0,0,0,1,1,1
7.305836000,0,0,1,0,0,1,1,1
7.311666000,0,0,0,0,0,1,1,1
7.311672000,0,0,0,1,0,1,1,1
7.311834000,0,0,0,0,0,1,1,1
7.311840000,0,0,0,0,1,1,1,1
7.311938000,0,0,0,0,0,1,1,1
7.311942000,0,0,0,0,1,1,1,1
7.311964000,0,0,0,0,0,1,1,1
7.311992000,0,1,0,0,0,1,1,1
7.312096000,0,0,0,0,0,1,1,1
7.312134000,0,0,1,0,0,1,1,1
7.317966000,0,0,0,0,0,1,1,1
7.317972000,0,0,0,1,0,1,1,1
7.318094000,0,0,0,0,0,1,1,1
7.318100000,0,0,0,0,1,1,1,1
7.318198000,0,0,0,0,0,1,1,1
7.318202000,0,0,0,0,1,1,1,1
7.318224000,0,0,0,0,0,1,1,1
7.318252000,0,1,0,0,0,1,1,1
7.318356000,0,0,0,0,0,1,1,1
7.318394000,0,0,1,0,0,1,1,1
7.324224000,0,0,0,0,0,1,1,1
7.324230000,0,0,0,1,0,1,1,1
7.324434000,0,0,0,0,0,1,1,1
7.324440000,0,0,0,0,1,1,1,1
7.324536000,0,0,0,0,0,1,1,1
7.324540000,0,0,0,0,1,1,1,1
7.324564000,0,0,0,0,0,1,1,1
7.324592000,0,1,0,0,0,1,1,1
7.324694000,0,0,0,0,0,1,1,1
7.324734000,0,0,1,0,0,1,1,1
7.330564000,0,0,0,0,0,1,1,1
7.330570000,0,0,0,1,0,1,1,1
7.330692000,0,0,0,0,0,1,1,1
7.330698000,0,0,0,0,1,1,1,1
7.330794000,0,0,0,0,0,1,1,1
7.330798000,0,0,0,0,1,1,1,1
7.330820000,0,0,0,0,0,1,1,1
7.330850000,0,1,0,0,0,1,1,1
7.330952000,0,0,0,0,0,1,1,1
7.330992000,0,0,1,0,0,1,1,1
7.336822000,0,0,0,0,0,1,1,1
7.336826000,0,0,0,1,0,1,1,1
7.336922000,0,0,0,0,0,1,1,1
7.336928000,0,0,0,0,1,1,1,1
7.337026000,0,0,0,0,0,1,1,1
7.337030000,0,0,0,0,1,1,1,1
7.337052000,0,0,0,0,0,1,1,1
7.337080000,0,1,0,0,0,1,1,1
7.337184000,0,0,0,0,0,1,1,1
7.337222000,0,0,1,0,0,1,1,1
7.343054000,0,0,0,0,0,1,1,1
7.343058000,0,0,0,1,0,1,1,1
7.343162000,0,0,0,0,0,1,1,1
7.343168000,0,0,0,0,1,1,1,1
7.343264000,0,0,0,0,0,1,1,1
7.343270000,0,0,0,0,1,1,1,1
7.343292000,0,0,0,0,0,1,1,1
7.343320000,0,1,0,0,0,1,1,1
7.343424000,0,0,0,0,0,1,1,1
7.343462000,0,0,1,0,0,1,1,1
