Time [s],Channel 0,Channel 1,Channel 2,Channel 3,Channel 4,Channel 5,Channel 6,Channel 7
0.000000000,0,0,0,1,0,1,1,1
0.000604000,0,0,0,0,0,1,1,1
0.000610000,0,0,0,0,1,1,1,1
0.000706000,0,0,0,0,0,1,1,1
0.000712000,0,0,0,0,1,1,1,1
0.000734000,0,0,0,0,0,1,1,1
0.000762000,0,1,0,0,0,1,1,1
0.000864000,0,0,0,0,0,1,1,1
0.000902000,0,0,1,0,0,1,1,1
0.001476000,0,0,0,0,0,1,1,1
0.001482000,0,0,0,1,0,1,1,1
0.001666000,0,0,0,0,0,1,1,1
0.001672000,0,0,0,0,1,1,1,1
0.001768000,0,0,0,0,0,1,1,1
0.001774000,0,0,0,0,1,1,1,1
0.001796000,0,0,0,0,0,1,1,1
0.001824000,0,1,0,0,0,1,1,1
0.001924000,0,0,0,0,0,1,1,1
0.001964000,0,0,1,0,0,1,1,1
0.002538000,0,0,0,0,0,1,1,1
0.002544000,0,0,0,1,0,1,1,1
0.003212000,0,0,0,0,0,1,1,1
0.003216000,0,0,0,0,1,1,1,1
0.003314000,0,0,0,0,0,1,1,1
0.003320000,0,0,0,0,1,1,1,1
0.003340000,0,0,0,0,0,1,1,1
0.003368000,0,1,0,0,0,1,1,1
0.003470000,0,0,0,0,0,1,1,1
0.003508000,0,0,1,0,0,1,1,1
0.004084000,0,0,0,0,0,1,1,1
0.004090000,0,0,0,1,0,1,1,1
0.015984000,0,0,0,0,0,1,1,1
0.015990000,0,0,0,0,1,1,1,1
0.016086000,0,0,0,0,0,1,1,1
0.016092000,0,0,0,0,1,1,1,1
0.016112000,0,0,0,0,0,1,1,1
0.016142000,0,1,0,0,0,1,1,1
0.016242000,0,0,0,0,0,1,1,1
0.016280000,0,0,1,0,0,1,1,1
0.016856000,0,0,0,0,0,1,1,1
0.016862000,0,0,0,1,0,1,1,1
0.017210000,0,0,0,0,0,1,1,1
0.017214000,0,0,0,0,1,1,1,1
0.017310000,0,0,0,0,0,1,1,1
0.017316000,0,0,0,0,1,1,1,1
0.017338000,0,0,0,0,0,1,1,1
0.017366000,0,1,0,0,0,1,1,1
0.017468000,0,0,0,0,0,1,1,1
0.017506000,0,0,1,0,0,1,1,1
0.018080000,0,0,0,0,0,1,1,1
0.018086000,0,0,0,1,0,1,1,1
0.021756000,0,0,0,0,0,1,1,1
0.021762000,0,0,0,0,1,1,1,1
0.021858000,0,0,0,0,0,1,1,1
0.021864000,0,0,0,0,1,1,1,1
0.021886000,0,0,0,0,0,1,1,1
0.021914000,0,1,0,0,0,1,1,1
0.022016000,0,0,0,0,0,1,1,1
0.022054000,0,0,1,0,0,1,1,1
0.022628000,0,0,0,0,0,1,1,1
0.022634000,0,0,0,1,0,1,1,1
0.022932000,0,0,0,0,0,1,1,1
0.022938000,0,0,0,0,1,1,1,1
0.023034000,0,0,0,0,0,1,1,1
0.023040000,0,0,0,0,1,1,1,1
0.023062000,0,0,0,0,0,1,1,1
0.023090000,0,1,0,0,0,1,1,1
0.023192000,0,0,0,0,0,1,1,1
0.023230000,0,0,1,0,0,1,1,1
0.023804000,0,0,0,0,0,1,1,1
0.023810000,0,0,0,1,0,1,1,1
0.023994000,0,0,0,0,0,1,1,1
0.024000000,0,0,0,0,1,1,1,1
0.024096000,0,0,0,0,0,1,1,1
0.024102000,0,0,0,0,1,1,1,1
0.024124000,0,0,0,0,0,1,1,1
0.024152000,0,1,0,0,0,1,1,1
0.024254000,0,0,0,0,0,1,1,1
0.024292000,0,0,1,0,0,1,1,1
0.024866000,0,0,0,0,0,1,1,1
0.024872000,0,0,0,1,0,1,1,1
0.025540000,0,0,0,0,0,1,1,1
0.025544000,0,0,0,0,1,1,1,1
0.025642000,0,0,0,0,0,1,1,1
0.025648000,0,0,0,0,1,1,1,1
0.025668000,0,0,0,0,0,1,1,1
0.025696000,0,1,0,0,0,1,1,1
0.025798000,0,0,0,0,0,1,1,1
0.025836000,0,0,1,0,0,1,1,1
0.026412000,0,0,0,0,0,1,1,1
0.026418000,0,0,0,1,0,1,1,1
0.035604000,0,0,0,0,0,1,1,1
0.035610000,0,0,0,0,1,1,1,1
0.035706000,0,0,0,0,0,1,1,1
0.035712000,0,0,0,0,1,1,1,1
0.035734000,0,0,0,0,0,1,1,1
0.035762000,0,1,0,0,0,1,1,1
0.035864000,0,0,0,0,0,1,1,1
0.035902000,0,0,1,0,0,1,1,1
0.036476000,0,0,0,0,0,1,1,1
0.036482000,0,0,0,1,0,1,1,1
0.036666000,0,0,0,0,0,1,1,1
0.036672000,0,0,0,0,1,1,1,1
0.036768000,0,0,0,0,0,1,1,1
0.036774000,0,0,0,0,1,1,1,1
0.036796000,0,0,0,0,0,1,1,1
0.036824000,0,1,0,0,0,1,1,1
0.036926000,0,0,0,0,0,1,1,1
0.036964000,0,0,1,0,0,1,1,1
0.037538000,0,0,0,0,0,1,1,1
0.037544000,0,0,0,1,0,1,1,1
0.038212000,0,0,0,0,0,1,1,1
0.038216000,0,0,0,0,1,1,1,1
0.038314000,0,0,0,0,0,1,1,1
0.038320000,0,0,0,0,1,1,1,1
0.038340000,0,0,0,0,0,1,1,1
0.038368000,0,1,0,0,0,1,1,1
0.038470000,0,0,0,0,0,1,1,1
0.038508000,0,0,1,0,0,1,1,1
0.039084000,0,0,0,0,0,1,1,1
0.039090000,0,0,0,1,0,1,1,1
0.048986000,0,0,0,0,0,1,1,1
0.048992000,0,0,0,0,1,1,1,1
0.049088000,0,0,0,0,0,1,1,1
0.049094000,0,0,0,0,1,1,1,1
0.049116000,0,0,0,0,0,1,1,1
0.049144000,0,1,0,0,0,1,1,1
0.049246000,0,0,0,0,0,1,1,1
0.049284000,0,0,1,0,0,1,1,1
0.049858000,0,0,0,0,0,1,1,1
0.049864000,0,0,0,1,0,1,1,1
0.050048000,0,0,0,0,0,1,1,1
0.050054000,0,0,0,0,1,1,1,1
0.050150000,0,0,0,0,0,1,1,1
0.050156000,0,0,0,0,1,1,1,1
0.050178000,0,0,0,0,0,1,1,1
0.050206000,0,1,0,0,0,1,1,1
0.050308000,0,0,0,0,0,1,1,1
0.050346000,0,0,1,0,0,1,1,1
0.050920000,0,0,0,0,0,1,1,1
0.050926000,0,0,0,1,0,1,1,1
0.051594000,0,0,0,0,0,1,1,1
0.051598000,0,0,0,0,1,1,1,1
0.051696000,0,0,0,0,0,1,1,1
0.051702000,0,0,0,0,1,1,1,1
0.051722000,0,0,0,0,0,1,1,1
0.051750000,0,1,0,0,0,1,1,1
0.051852000,0,0,0,0,0,1,1,1
0.051890000,0,0,1,0,0,1,1,1
0.052466000,0,0,0,0,0,1,1,1
0.052472000,0,0,0,1,0,1,1,1
0.061654000,0,0,0,0,0,1,1,1
0.061660000,0,0,0,0,1,1,1,1
0.061756000,0,0,0,0,0,1,1,1
0.061762000,0,0,0,0,1,1,1,1
0.061784000,0,0,0,0,0,1,1,1
0.061812000,0,1,0,0,0,1,1,1
0.061914000,0,0,0,0,0,1,1,1
0.061952000,0,0,1,0,0,1,1,1
0.062526000,0,0,0,0,0,1,1,1
0.062532000,0,0,0,1,0,1,1,1
0.062716000,0,0,0,0,0,1,1,1
0.062722000,0,0,0,0,1,1,1,1
0.062818000,0,0,0,0,0,1,1,1
0.062824000,0,0,0,0,1,1,1,1
0.062846000,0,0,0,0,0,1,1,1
0.062874000,0,1,0,0,0,1,1,1
0.062976000,0,0,0,0,0,1,1,1
0.063014000,0,0,1,0,0,1,1,1
0.063588000,0,0,0,0,0,1,1,1
0.063594000,0,0,0,1,0,1,1,1
0.064262000,0,0,0,0,0,1,1,1
0.064266000,0,0,0,0,1,1,1,1
0.064364000,0,0,0,0,0,1,1,1
0.064370000,0,0,0,0,1,1,1,1
0.064390000,0,0,0,0,0,1,1,1
0.064418000,0,1,0,0,0,1,1,1
0.064520000,0,0,0,0,0,1,1,1
0.064558000,0,0,1,0,0,1,1,1
0.065134000,0,0,0,0,0,1,1,1
0.065140000,0,0,0,1,0,1,1,1
0.077100000,0,0,0,0,0,1,1,1
0.077104000,0,0,0,0,1,1,1,1
0.077200000,0,0,0,0,0,1,1,1
0.077206000,0,0,0,0,1,1,1,1
0.077228000,0,0,0,0,0,1,1,1
0.077256000,0,1,0,0,0,1,1,1
0.077358000,0,0,0,0,0,1,1,1
0.077396000,0,0,1,0,0,1,1,1
0.077970000,0,0,0,0,0,1,1,1
0.077976000,0,0,0,1,0,1,1,1
0.078326000,0,0,0,0,0,1,1,1
0.078332000,0,0,0,0,1,1,1,1
0.078428000,0,0,0,0,0,1,1,1
0.078434000,0,0,0,0,1,1,1,1
0.078456000,0,0,0,0,0,1,1,1
0.078484000,0,1,0,0,0,1,1,1
0.078584000,0,0,0,0,0,1,1,1
0.078624000,0,0,1,0,0,1,1,1
0.079198000,0,0,0,0,0,1,1,1
0.079204000,0,0,0,1,0,1,1,1
0.109362000,0,0,0,0,0,1,1,1
0.109366000,0,0,0,0,1,1,1,1
0.109464000,0,0,0,0,0,1,1,1
0.109470000,0,0,0,0,1,1,1,1
0.109490000,0,0,0,0,0,1,1,1
0.109518000,0,1,0,0,0,1,1,1
0.109620000,0,0,0,0,0,1,1,1
0.109658000,0,0,1,0,0,1,1,1
0.110234000,0,0,0,0,0,1,1,1
0.110240000,0,0,0,1,0,1,1,1
0.110536000,0,0,0,0,0,1,1,1
0.110540000,0,0,0,0,1,1,1,1
0.110638000,0,0,0,0,0,1,1,1
0.110644000,0,0,0,0,1,1,1,1
0.110664000,0,0,0,0,0,1,1,1
0.110692000,0,1,0,0,0,1,1,1
0.110794000,0,0,0,0,0,1,1,1
0.110832000,0,0,1,0,0,1,1,1
0.111408000,0,0,0,0,0,1,1,1
0.111414000,0,0,0,1,0,1,1,1
0.111814000,0,0,0,0,0,1,1,1
0.111820000,0,0,0,0,1,1,1,1
0.111916000,0,0,0,0,0,1,1,1
0.111922000,0,0,0,0,1,1,1,1
0.111942000,0,0,0,0,0,1,1,1
0.111972000,0,1,0,0,0,1,1,1
0.112072000,0,0,0,0,0,1,1,1
0.112112000,0,0,1,0,0,1,1,1
0.112686000,0,0,0,0,0,1,1,1
0.112692000,0,0,0,1,0,1,1,1
0.113456000,0,0,0,0,0,1,1,1
0.113460000,0,0,0,0,1,1,1,1
0.113558000,0,0,0,0,0,1,1,1
0.113564000,0,0,0,0,1,1,1,1
0.113584000,0,0,0,0,0,1,1,1
0.113612000,0,1,0,0,0,1,1,1
0.113714000,0,0,0,0,0,1,1,1
0.113752000,0,0,1,0,0,1,1,1
0.114328000,0,0,0,0,0,1,1,1
0.114334000,0,0,0,1,0,1,1,1
0.115576000,0,0,0,0,0,1,1,1
0.115580000,0,0,0,0,1,1,1,1
0.115678000,0,0,0,0,0,1,1,1
0.115684000,0,0,0,0,1,1,1,1
0.115704000,0,0,0,0,0,1,1,1
0.115732000,0,1,0,0,0,1,1,1
0.115834000,0,0,0,0,0,1,1,1
0.115872000,0,0,1,0,0,1,1,1
0.116448000,0,0,0,0,0,1,1,1
0.116454000,0,0,0,1,0,1,1,1
0.117640000,0,0,0,0,0,1,1,1
0.117646000,0,0,0,0,1,1,1,1
0.117742000,0,0,0,0,0,1,1,1
0.117748000,0,0,0,0,1,1,1,1
0.117770000,0,0,0,0,0,1,1,1
0.117798000,0,1,0,0,0,1,1,1
0.117900000,0,0,0,0,0,1,1,1
0.117938000,0,0,1,0,0,1,1,1
0.118512000,0,0,0,0,0,1,1,1
0.118518000,0,0,0,1,0,1,1,1
0.119752000,0,0,0,0,0,1,1,1
0.119758000,0,0,0,0,1,1,1,1
0.119854000,0,0,0,0,0,1,1,1
0.119860000,0,0,0,0,1,1,1,1
0.119882000,0,0,0,0,0,1,1,1
0.119910000,0,1,0,0,0,1,1,1
0.120012000,0,0,0,0,0,1,1,1
0.120050000,0,0,1,0,0,1,1,1
0.120624000,0,0,0,0,0,1,1,1
0.120630000,0,0,0,1,0,1,1,1
0.121822000,0,0,0,0,0,1,1,1
0.121826000,0,0,0,0,1,1,1,1
0.121922000,0,0,0,0,0,1,1,1
0.121928000,0,0,0,0,1,1,1,1
0.121950000,0,0,0,0,0,1,1,1
0.121978000,0,1,0,0,0,1,1,1
0.122080000,0,0,0,0,0,1,1,1
0.122118000,0,0,1,0,0,1,1,1
0.122692000,0,0,0,0,0,1,1,1
0.122698000,0,0,0,1,0,1,1,1
0.122886000,0,0,0,0,0,1,1,1
0.122892000,0,0,0,0,1,1,1,1
0.122988000,0,0,0,0,0,1,1,1
0.122994000,0,0,0,0,1,1,1,1
0.123014000,0,0,0,0,0,1,1,1
0.123044000,0,1,0,0,0,1,1,1
0.123144000,0,0,0,0,0,1,1,1
0.123184000,0,0,1,0,0,1,1,1
0.123758000,0,0,0,0,0,1,1,1
0.123764000,0,0,0,1,0,1,1,1
0.124118000,0,0,0,0,0,1,1,1
0.124124000,0,0,0,0,1,1,1,1
0.124220000,0,0,0,0,0,1,1,1
0.124226000,0,0,0,0,1,1,1,1
0.124248000,0,0,0,0,0,1,1,1
0.124276000,0,1,0,0,0,1,1,1
0.124376000,0,0,0,0,0,1,1,1
0.124416000,0,0,1,0,0,1,1,1
0.124990000,0,0,0,0,0,1,1,1
0.124996000,0,0,0,1,0,1,1,1
0.125048000,0,0,0,0,0,1,1,1
0.125052000,0,0,0,0,1,1,1,1
0.125150000,0,0,0,0,0,1,1,1
0.125156000,0,0,0,0,1,1,1,1
0.125176000,0,0,0,0,0,1,1,1
0.125204000,0,1,0,0,0,1,1,1
0.125306000,0,0,0,0,0,1,1,1
0.125344000,0,0,1,0,0,1,1,1
0.125920000,0,0,0,0,0,1,1,1
0.125926000,0,0,0,1,0,1,1,1
0.126180000,0,0,0,0,0,1,1,1
0.126186000,0,0,0,0,1,1,1,1
0.126282000,0,0,0,0,0,1,1,1
0.126288000,0,0,0,0,1,1,1,1
0.126310000,0,0,0,0,0,1,1,1
0.126338000,0,1,0,0,0,1,1,1
0.126440000,0,0,0,0,0,1,1,1
0.126478000,0,0,1,0,0,1,1,1
0.127052000,0,0,0,0,0,1,1,1
0.127058000,0,0,0,1,0,1,1,1
0.127908000,0,0,0,0,0,1,1,1
0.127914000,0,0,0,0,1,1,1,1
0.128010000,0,0,0,0,0,1,1,1
0.128016000,0,0,0,0,1,1,1,1
0.128036000,0,0,0,0,0,1,1,1
0.128066000,0,1,0,0,0,1,1,1
0.128166000,0,0,0,0,0,1,1,1
0.128206000,0,0,1,0,0,1,1,1
0.128780000,0,0,0,0,0,1,1,1
0.128786000,0,0,0,1,0,1,1,1
0.129622000,0,0,0,0,0,1,1,1
0.129628000,0,0,0,0,1,1,1,1
0.129724000,0,0,0,0,0,1,1,1
0.129730000,0,0,0,0,1,1,1,1
0.129752000,0,0,0,0,0,1,1,1
0.129780000,0,1,0,0,0,1,1,1
0.129880000,0,0,0,0,0,1,1,1
0.129920000,0,0,1,0,0,1,1,1
0.130494000,0,0,0,0,0,1,1,1
0.130500000,0,0,0,1,0,1,1,1
0.131628000,0,0,0,0,0,1,1,1
0.131632000,0,0,0,0,1,1,1,1
0.131730000,0,0,0,0,0,1,1,1
0.131736000,0,0,0,0,1,1,1,1
0.131756000,0,0,0,0,0,1,1,1
0.131784000,0,1,0,0,0,1,1,1
0.131886000,0,0,0,0,0,1,1,1
0.131924000,0,0,1,0,0,1,1,1
0.132500000,0,0,0,0,0,1,1,1
0.132506000,0,0,0,1,0,1,1,1
0.133550000,0,0,0,0,0,1,1,1
0.133556000,0,0,0,0,1,1,1,1
0.133652000,0,0,0,0,0,1,1,1
0.133658000,0,0,0,0,1,1,1,1
0.133680000,0,0,0,0,0,1,1,1
0.133708000,0,1,0,0,0,1,1,1
0.133810000,0,0,0,0,0,1,1,1
0.133848000,0,0,1,0,0,1,1,1
0.134422000,0,0,0,0,0,1,1,1
0.134428000,0,0,0,1,0,1,1,1
0.135278000,0,0,0,0,0,1,1,1
0.135284000,0,0,0,0,1,1,1,1
0.135380000,0,0,0,0,0,1,1,1
0.135386000,0,0,0,0,1,1,1,1
0.135408000,0,0,0,0,0,1,1,1
0.135436000,0,1,0,0,0,1,1,1
0.135536000,0,0,0,0,0,1,1,1
0.135576000,0,0,1,0,0,1,1,1
0.136150000,0,0,0,0,0,1,1,1
0.136156000,0,0,0,1,0,1,1,1
0.137138000,0,0,0,0,0,1,1,1
0.137142000,0,0,0,0,1,1,1,1
0.137240000,0,0,0,0,0,1,1,1
0.137246000,0,0,0,0,1,1,1,1
0.137266000,0,0,0,0,0,1,1,1
0.137294000,0,1,0,0,0,1,1,1
0.137396000,0,0,0,0,0,1,1,1
0.137434000,0,0,1,0,0,1,1,1
0.138010000,0,0,0,0,0,1,1,1
0.138016000,0,0,0,1,0,1,1,1
0.139010000,0,0,0,0,0,1,1,1
0.139014000,0,0,0,0,1,1,1,1
0.139112000,0,0,0,0,0,1,1,1
0.139118000,0,0,0,0,1,1,1,1
0.139138000,0,0,0,0,0,1,1,1
0.139166000,0,1,0,0,0,1,1,1
0.139268000,0,0,0,0,0,1,1,1
0.139306000,0,0,1,0,0,1,1,1
0.139882000,0,0,0,0,0,1,1,1
0.139888000,0,0,0,1,0,1,1,1
0.140938000,0,0,0,0,0,1,1,1
0.140942000,0,0,0,0,1,1,1,1
0.141040000,0,0,0,0,0,1,1,1
0.141046000,0,0,0,0,1,1,1,1
0.141066000,0,0,0,0,0,1,1,1
0.141094000,0,1,0,0,0,1,1,1
0.141196000,0,0,0,0,0,1,1,1
0.141234000,0,0,1,0,0,1,1,1
0.141810000,0,0,0,0,0,1,1,1
0.141816000,0,0,0,1,0,1,1,1
0.142738000,0,0,0,0,0,1,1,1
0.142742000,0,0,0,0,1,1,1,1
0.142838000,0,0,0,0,0,1,1,1
0.142844000,0,0,0,0,1,1,1,1
0.142866000,0,0,0,0,0,1,1,1
0.142894000,0,1,0,0,0,1,1,1
0.142996000,0,0,0,0,0,1,1,1
0.143034000,0,0,1,0,0,1,1,1
0.143608000,0,0,0,0,0,1,1,1
0.143616000,0,0,0,1,0,1,1,1
0.144596000,0,0,0,0,0,1,1,1
0.144602000,0,0,0,0,1,1,1,1
0.144698000,0,0,0,0,0,1,1,1
0.144704000,0,0,0,0,1,1,1,1
0.144726000,0,0,0,0,0,1,1,1
0.144754000,0,1,0,0,0,1,1,1
0.144856000,0,0,0,0,0,1,1,1
0.144894000,0,0,1,0,0,1,1,1
0.145468000,0,0,0,0,0,1,1,1
0.145474000,0,0,0,1,0,1,1,1
0.146534000,0,0,0,0,0,1,1,1
0.146538000,0,0,0,0,1,1,1,1
0.146634000,0,0,0,0,0,1,1,1
0.146640000,0,0,0,0,1,1,1,1
0.146662000,0,0,0,0,0,1,1,1
0.146690000,0,1,0,0,0,1,1,1
0.146792000,0,0,0,0,0,1,1,1
0.146830000,0,0,1,0,0,1,1,1
0.147404000,0,0,0,0,0,1,1,1
0.147410000,0,0,0,1,0,1,1,1
0.148456000,0,0,0,0,0,1,1,1
0.148462000,0,0,0,0,1,1,1,1
0.148558000,0,0,0,0,0,1,1,1
0.148564000,0,0,0,0,1,1,1,1
0.148586000,0,0,0,0,0,1,1,1
0.148614000,0,1,0,0,0,1,1,1
0.148716000,0,0,0,0,0,1,1,1
0.148754000,0,0,1,0,0,1,1,1
0.149328000,0,0,0,0,0,1,1,1
0.149334000,0,0,0,1,0,1,1,1
0.150398000,0,0,0,0,0,1,1,1
0.150402000,0,0,0,0,1,1,1,1
0.150500000,0,0,0,0,0,1,1,1
0.150506000,0,0,0,0,1,1,1,1
0.150526000,0,0,0,0,0,1,1,1
0.150554000,0,1,0,0,0,1,1,1
0.150656000,0,0,0,0,0,1,1,1
0.150694000,0,0,1,0,0,1,1,1
0.151270000,0,0,0,0,0,1,1,1
0.151276000,0,0,0,1,0,1,1,1
0.152256000,0,0,0,0,0,1,1,1
0.152262000,0,0,0,0,1,1,1,1
0.152358000,0,0,0,0,0,1,1,1
0.152364000,0,0,0,0,1,1,1,1
0.152386000,0,0,0,0,0,1,1,1
0.152414000,0,1,0,0,0,1,1,1
0.152516000,0,0,0,0,0,1,1,1
0.152554000,0,0,1,0,0,1,1,1
0.153128000,0,0,0,0,0,1,1,1
0.153134000,0,0,0,1,0,1,1,1
0.154202000,0,0,0,0,0,1,1,1
0.154206000,0,0,0,0,1,1,1,1
0.154304000,0,0,0,0,0,1,1,1
0.154310000,0,0,0,0,1,1,1,1
0.154330000,0,0,0,0,0,1,1,1
0.154358000,0,1,0,0,0,1,1,1
0.154460000,0,0,0,0,0,1,1,1
0.154498000,0,0,1,0,0,1,1,1
0.155074000,0,0,0,0,0,1,1,1
0.155080000,0,0,0,1,0,1,1,1
0.156194000,0,0,0,0,0,1,1,1
0.156198000,0,0,0,0,1,1,1,1
0.156296000,0,0,0,0,0,1,1,1
0.156302000,0,0,0,0,1,1,1,1
0.156322000,0,0,0,0,0,1,1,1
0.156350000,0,1,0,0,0,1,1,1
0.156452000,0,0,0,0,0,1,1,1
0.156490000,0,0,1,0,0,1,1,1
0.157066000,0,0,0,0,0,1,1,1
0.157072000,0,0,0,1,0,1,1,1
0.157994000,0,0,0,0,0,1,1,1
0.157998000,0,0,0,0,1,1,1,1
0.158094000,0,0,0,0,0,1,1,1
0.158100000,0,0,0,0,1,1,1,1
0.158122000,0,0,0,0,0,1,1,1
0.158150000,0,1,0,0,0,1,1,1
0.158252000,0,0,0,0,0,1,1,1
0.158290000,0,0,1,0,0,1,1,1
0.158866000,0,0,0,0,0,1,1,1
0.158872000,0,0,0,1,0,1,1,1
0.159920000,0,0,0,0,0,1,1,1
0.159926000,0,0,0,0,1,1,1,1
0.160022000,0,0,0,0,0,1,1,1
0.160028000,0,0,0,0,1,1,1,1
0.160050000,0,0,0,0,0,1,1,1
0.160078000,0,1,0,0,0,1,1,1
0.160180000,0,0,0,0,0,1,1,1
0.160218000,0,0,1,0,0,1,1,1
0.160792000,0,0,0,0,0,1,1,1
0.160798000,0,0,0,1,0,1,1,1
0.161720000,0,0,0,0,0,1,1,1
0.161726000,0,0,0,0,1,1,1,1
0.161822000,0,0,0,0,0,1,1,1
0.161828000,0,0,0,0,1,1,1,1
0.161850000,0,0,0,0,0,1,1,1
0.161878000,0,1,0,0,0,1,1,1
0.161980000,0,0,0,0,0,1,1,1
0.162018000,0,0,1,0,0,1,1,1
0.162592000,0,0,0,0,0,1,1,1
0.162598000,0,0,0,1,0,1,1,1
0.163576000,0,0,0,0,0,1,1,1
0.163580000,0,0,0,0,1,1,1,1
0.163678000,0,0,0,0,0,1,1,1
0.163684000,0,0,0,0,1,1,1,1
0.163704000,0,0,0,0,0,1,1,1
0.163732000,0,1,0,0,0,1,1,1
0.163834000,0,0,0,0,0,1,1,1
0.163872000,0,0,1,0,0,1,1,1
0.164448000,0,0,0,0,0,1,1,1
0.164454000,0,0,0,1,0,1,1,1
0.165516000,0,0,0,0,0,1,1,1
0.165522000,0,0,0,0,1,1,1,1
0.165618000,0,0,0,0,0,1,1,1
0.165624000,0,0,0,0,1,1,1,1
0.165646000,0,0,0,0,0,1,1,1
0.165674000,0,1,0,0,0,1,1,1
0.165776000,0,0,0,0,0,1,1,1
0.165814000,0,0,1,0,0,1,1,1
0.166388000,0,0,0,0,0,1,1,1
0.166394000,0,0,0,1,0,1,1,1
0.167230000,0,0,0,0,0,1,1,1
0.167236000,0,0,0,0,1,1,1,1
0.167332000,0,0,0,0,0,1,1,1
0.167338000,0,0,0,0,1,1,1,1
0.167360000,0,0,0,0,0,1,1,1
0.167388000,0,1,0,0,0,1,1,1
0.167490000,0,0,0,0,0,1,1,1
0.167528000,0,0,1,0,0,1,1,1
0.168102000,0,0,0,0,0,1,1,1
0.168108000,0,0,0,1,0,1,1,1
0.169172000,0,0,0,0,0,1,1,1
0.169176000,0,0,0,0,1,1,1,1
0.169274000,0,0,0,0,0,1,1,1
0.169280000,0,0,0,0,1,1,1,1
0.169300000,0,0,0,0,0,1,1,1
0.169328000,0,1,0,0,0,1,1,1
0.169430000,0,0,0,0,0,1,1,1
0.169468000,0,0,1,0,0,1,1,1
0.170044000,0,0,0,0,0,1,1,1
0.170050000,0,0,0,1,0,1,1,1
0.170886000,0,0,0,0,0,1,1,1
0.170892000,0,0,0,0,1,1,1,1
0.170988000,0,0,0,0,0,1,1,1
0.170994000,0,0,0,0,1,1,1,1
0.171014000,0,0,0,0,0,1,1,1
0.171044000,0,1,0,0,0,1,1,1
0.171144000,0,0,0,0,0,1,1,1
0.171184000,0,0,1,0,0,1,1,1
0.171758000,0,0,0,0,0,1,1,1
0.171764000,0,0,0,1,0,1,1,1
0.172822000,0,0,0,0,0,1,1,1
0.172828000,0,0,0,0,1,1,1,1
0.172924000,0,0,0,0,0,1,1,1
0.172930000,0,0,0,0,1,1,1,1
0.172952000,0,0,0,0,0,1,1,1
0.172980000,0,1,0,0,0,1,1,1
0.173082000,0,0,0,0,0,1,1,1
0.173120000,0,0,1,0,0,1,1,1
0.173694000,0,0,0,0,0,1,1,1
0.173700000,0,0,0,1,0,1,1,1
0.174678000,0,0,0,0,0,1,1,1
0.174684000,0,0,0,0,1,1,1,1
0.174780000,0,0,0,0,0,1,1,1
0.174786000,0,0,0,0,1,1,1,1
0.174806000,0,0,0,0,0,1,1,1
0.174836000,0,1,0,0,0,1,1,1
0.174936000,0,0,0,0,0,1,1,1
0.174974000,0,0,1,0,0,1,1,1
0.175550000,0,0,0,0,0,1,1,1
0.175556000,0,0,0,1,0,1,1,1
0.176406000,0,0,0,0,0,1,1,1
0.176410000,0,0,0,0,1,1,1,1
0.176508000,0,0,0,0,0,1,1,1
0.176514000,0,0,0,0,1,1,1,1
0.176534000,0,0,0,0,0,1,1,1
0.176562000,0,1,0,0,0,1,1,1
0.176664000,0,0,0,0,0,1,1,1
0.176702000,0,0,1,0,0,1,1,1
0.177278000,0,0,0,0,0,1,1,1
0.177284000,0,0,0,1,0,1,1,1
0.178192000,0,0,0,0,0,1,1,1
0.178198000,0,0,0,0,1,1,1,1
0.178294000,0,0,0,0,0,1,1,1
0.178300000,0,0,0,0,1,1,1,1
0.178320000,0,0,0,0,0,1,1,1
0.178350000,0,1,0,0,0,1,1,1
0.178450000,0,0,0,0,0,1,1,1
0.178490000,0,0,1,0,0,1,1,1
0.179064000,0,0,0,0,0,1,1,1
0.179070000,0,0,0,1,0,1,1,1
0.180132000,0,0,0,0,0,1,1,1
0.180138000,0,0,0,0,1,1,1,1
0.180234000,0,0,0,0,0,1,1,1
0.180240000,0,0,0,0,1,1,1,1
0.180262000,0,0,0,0,0,1,1,1
0.180290000,0,1,0,0,0,1,1,1
0.180392000,0,0,0,0,0,1,1,1
0.180430000,0,0,1,0,0,1,1,1
0.181004000,0,0,0,0,0,1,1,1
0.181010000,0,0,0,1,0,1,1,1
0.182124000,0,0,0,0,0,1,1,1
0.182130000,0,0,0,0,1,1,1,1
0.182226000,0,0,0,0,0,1,1,1
0.182232000,0,0,0,0,1,1,1,1
0.182254000,0,0,0,0,0,1,1,1
0.182282000,0,1,0,0,0,1,1,1
0.182384000,0,0,0,0,0,1,1,1
0.182422000,0,0,1,0,0,1,1,1
0.182996000,0,0,0,0,0,1,1,1
0.183002000,0,0,0,1,0,1,1,1
0.183852000,0,0,0,0,0,1,1,1
0.183858000,0,0,0,0,1,1,1,1
0.183954000,0,0,0,0,0,1,1,1
0.183960000,0,0,0,0,1,1,1,1
0.183982000,0,0,0,0,0,1,1,1
0.184010000,0,1,0,0,0,1,1,1
0.184110000,0,0,0,0,0,1,1,1
0.184150000,0,0,1,0,0,1,1,1
0.184724000,0,0,0,0,0,1,1,1
0.184730000,0,0,0,1,0,1,1,1
0.185780000,0,0,0,0,0,1,1,1
0.185784000,0,0,0,0,1,1,1,1
0.185882000,0,0,0,0,0,1,1,1
0.185888000,0,0,0,0,1,1,1,1
0.185908000,0,0,0,0,0,1,1,1
0.185936000,0,1,0,0,0,1,1,1
0.186038000,0,0,0,0,0,1,1,1
0.186076000,0,0,1,0,0,1,1,1
0.186652000,0,0,0,0,0,1,1,1
0.186658000,0,0,0,1,0,1,1,1
0.187724000,0,0,0,0,0,1,1,1
0.187730000,0,0,0,0,1,1,1,1
0.187826000,0,0,0,0,0,1,1,1
0.187832000,0,0,0,0,1,1,1,1
0.187854000,0,0,0,0,0,1,1,1
0.187882000,0,1,0,0,0,1,1,1
0.187984000,0,0,0,0,0,1,1,1
0.188022000,0,0,1,0,0,1,1,1
0.188596000,0,0,0,0,0,1,1,1
0.188602000,0,0,0,1,0,1,1,1
0.189580000,0,0,0,0,0,1,1,1
0.189584000,0,0,0,0,1,1,1,1
0.189682000,0,0,0,0,0,1,1,1
0.189688000,0,0,0,0,1,1,1,1
0.189708000,0,0,0,0,0,1,1,1
0.189736000,0,1,0,0,0,1,1,1
0.189838000,0,0,0,0,0,1,1,1
0.189876000,0,0,1,0,0,1,1,1
0.190452000,0,0,0,0,0,1,1,1
0.190458000,0,0,0,1,0,1,1,1
0.191448000,0,0,0,0,0,1,1,1
0.191454000,0,0,0,0,1,1,1,1
0.191550000,0,0,0,0,0,1,1,1
0.191556000,0,0,0,0,1,1,1,1
0.191576000,0,0,0,0,0,1,1,1
0.191606000,0,1,0,0,0,1,1,1
0.191706000,0,0,0,0,0,1,1,1
0.191746000,0,0,1,0,0,1,1,1
0.192320000,0,0,0,0,0,1,1,1
0.192326000,0,0,0,1,0,1,1,1
0.193376000,0,0,0,0,0,1,1,1
0.193380000,0,0,0,0,1,1,1,1
0.193478000,0,0,0,0,0,1,1,1
0.193484000,0,0,0,0,1,1,1,1
0.193504000,0,0,0,0,0,1,1,1
0.193532000,0,1,0,0,0,1,1,1
0.193634000,0,0,0,0,0,1,1,1
0.193672000,0,0,1,0,0,1,1,1
0.194248000,0,0,0,0,0,1,1,1
0.194254000,0,0,0,1,0,1,1,1
0.195382000,0,0,0,0,0,1,1,1
0.195386000,0,0,0,0,1,1,1,1
0.195482000,0,0,0,0,0,1,1,1
0.195488000,0,0,0,0,1,1,1,1
0.195510000,0,0,0,0,0,1,1,1
0.195538000,0,1,0,0,0,1,1,1
0.195640000,0,0,0,0,0,1,1,1
0.195678000,0,0,1,0,0,1,1,1
0.196252000,0,0,0,0,0,1,1,1
0.196258000,0,0,0,1,0,1,1,1
0.197378000,0,0,0,0,0,1,1,1
0.197382000,0,0,0,0,1,1,1,1
0.197478000,0,0,0,0,0,1,1,1
0.197484000,0,0,0,0,1,1,1,1
0.197506000,0,0,0,0,0,1,1,1
0.197534000,0,1,0,0,0,1,1,1
0.197636000,0,0,0,0,0,1,1,1
0.197674000,0,0,1,0,0,1,1,1
0.198248000,0,0,0,0,0,1,1,1
0.198254000,0,0,0,1,0,1,1,1
0.199104000,0,0,0,0,0,1,1,1
0.199110000,0,0,0,0,1,1,1,1
0.199206000,0,0,0,0,0,1,1,1
0.199212000,0,0,0,0,1,1,1,1
0.199234000,0,0,0,0,0,1,1,1
0.199262000,0,1,0,0,0,1,1,1
0.199364000,0,0,0,0,0,1,1,1
0.199402000,0,0,1,0,0,1,1,1
0.199976000,0,0,0,0,0,1,1,1
0.199982000,0,0,0,1,0,1,1,1
