Time [s],Channel 0,Channel 1,Channel 2,Channel 3,Channel 4,Channel 5,Channel 6,Channel 7
0.000000000,0,0,0,0,1,1,1,1
0.000004542,0,0,0,0,0,1,1,1
0.000032708,0,1,0,0,0,1,1,1
0.000100167,0,0,0,0,0,1,1,1
0.000134375,0,0,1,0,0,1,1,1
0.000291375,0,0,0,0,0,1,1,1
0.000297417,0,0,0,1,0,1,1,1
0.000456417,0,0,0,0,0,1,1,1
0.000462458,0,0,0,0,1,1,1,1
0.000561083,0,0,0,0,0,1,1,1
0.000566125,0,0,0,0,1,1,1,1
0.000581208,0,0,0,0,0,1,1,1
0.000609375,0,1,0,0,0,1,1,1
0.000676792,0,0,0,0,0,1,1,1
0.000711042,0,0,1,0,0,1,1,1
0.000868000,0,0,0,0,0,1,1,1
0.000874042,0,0,0,1,0,1,1,1
0.001031042,0,0,0,0,0,1,1,1
0.001037083,0,0,0,0,1,1,1,1
0.001135708,0,0,0,0,0,1,1,1
0.001140750,0,0,0,0,1,1,1,1
0.001155875,0,0,0,0,0,1,1,1
0.001184042,0,1,0,0,0,1,1,1
0.001251458,0,0,0,0,0,1,1,1
0.001285708,0,0,1,0,0,1,1,1
0.001442667,0,0,0,0,0,1,1,1
0.001448708,0,0,0,1,0,1,1,1
0.001606708,0,0,0,0,0,1,1,1
0.001612750,0,0,0,0,1,1,1,1
0.001711375,0,0,0,0,0,1,1,1
0.001716417,0,0,0,0,1,1,1,1
0.001731500,0,0,0,0,0,1,1,1
0.001759708,0,1,0,0,0,1,1,1
0.001827125,0,0,0,0,0,1,1,1
0.001861333,0,0,1,0,0,1,1,1
0.002018333,0,0,0,0,0,1,1,1
0.002024375,0,0,0,1,0,1,1,1
0.002181375,0,0,0,0,0,1,1,1
0.002187417,0,0,0,0,1,1,1,1
0.002286042,0,0,0,0,0,1,1,1
0.002291083,0,0,0,0,1,1,1,1
0.002306167,0,0,0,0,0,1,1,1
0.002334333,0,1,0,0,0,1,1,1
0.002401750,0,0,0,0,0,1,1,1
0.002436000,0,0,1,0,0,1,1,1
0.002593000,0,0,0,0,0,1,1,1
0.002599042,0,0,0,1,0,1,1,1
0.002758042,0,0,0,0,0,1,1,1
0.002764083,0,0,0,0,1,1,1,1
0.002862708,0,0,0,0,0,1,1,1
0.002867708,0,0,0,0,1,1,1,1
0.002882833,0,0,0,0,0,1,1,1
0.002911000,0,1,0,0,0,1,1,1
0.002978417,0,0,0,0,0,1,1,1
0.003012667,0,0,1,0,0,1,1,1
0.003169667,0,0,0,0,0,1,1,1
0.003175708,0,0,0,1,0,1,1,1
0.003333708,0,0,0,0,0,1,1,1
0.003339750,0,0,0,0,1,1,1,1
0.003438375,0,0,0,0,0,1,1,1
0.003443417,0,0,0,0,1,1,1,1
0.003458500,0,0,0,0,0,1,1,1
0.003486667,0,1,0,0,0,1,1,1
0.003554125,0,0,0,0,0,1,1,1
0.003588333,0,0,1,0,0,1,1,1
0.003745333,0,0,0,0,0,1,1,1
0.003751375,0,0,0,1,0,1,1,1
0.003910375,0,0,0,0,0,1,1,1
0.003916417,0,0,0,0,1,1,1,1
0.004015042,0,0,0,0,0,1,1,1
0.004020083,0,0,0,0,1,1,1,1
0.004035167,0,0,0,0,0,1,1,1
0.004063375,0,1,0,0,0,1,1,1
0.004130792,0,0,0,0,0,1,1,1
0.004165000,0,0,1,0,0,1,1,1
0.004322000,0,0,0,0,0,1,1,1
0.004328042,0,0,0,1,0,1,1,1
0.004485042,0,0,0,0,0,1,1,1
0.004491083,0,0,0,0,1,1,1,1
0.004589708,0,0,0,0,0,1,1,1
0.004594750,0,0,0,0,1,1,1,1
0.004609833,0,0,0,0,0,1,1,1
0.004638000,0,1,0,0,0,1,1,1
0.004705417,0,0,0,0,0,1,1,1
0.004739667,0,0,1,0,0,1,1,1
0.004896667,0,0,0,0,0,1,1,1
0.004902667,0,0,0,1,0,1,1,1
0.005060708,0,0,0,0,0,1,1,1
0.005066750,0,0,0,0,1,1,1,1
0.005165375,0,0,0,0,0,1,1,1
0.005170375,0,0,0,0,1,1,1,1
0.005185500,0,0,0,0,0,1,1,1
0.005213667,0,1,0,0,0,1,1,1
0.005281083,0,0,0,0,0,1,1,1
0.005315333,0,0,1,0,0,1,1,1
0.005472333,0,0,0,0,0,1,1,1
0.005478375,0,0,0,1,0,1,1,1
0.005636375,0,0,0,0,0,1,1,1
0.005642417,0,0,0,0,1,1,1,1
0.005741042,0,0,0,0,0,1,1,1
0.005746042,0,0,0,0,1,1,1,1
0.005761167,0,0,0,0,0,1,1,1
0.005789333,0,1,0,0,0,1,1,1
0.005856750,0,0,0,0,0,1,1,1
0.005890958,0,0,1,0,0,1,1,1
0.006047958,0,0,0,0,0,1,1,1
0.006054000,0,0,0,1,0,1,1,1
0.006213000,0,0,0,0,0,1,1,1
0.006219042,0,0,0,0,1,1,1,1
0.006317667,0,0,0,0,0,1,1,1
0.006322708,0,0,0,0,1,1,1,1
0.006337833,0,0,0,0,0,1,1,1
0.006366000,0,1,0,0,0,1,1,1
0.006433417,0,0,0,0,0,1,1,1
0.006467625,0,0,1,0,0,1,1,1
0.006624625,0,0,0,0,0,1,1,1
0.006630667,0,0,0,1,0,1,1,1
0.006788667,0,0,0,0,0,1,1,1
0.006794708,0,0,0,0,1,1,1,1
0.006893375,0,0,0,0,0,1,1,1
0.006898375,0,0,0,0,1,1,1,1
0.006913500,0,0,0,0,0,1,1,1
0.006941667,0,1,0,0,0,1,1,1
0.007009083,0,0,0,0,0,1,1,1
0.007043292,0,0,1,0,0,1,1,1
0.007200292,0,0,0,0,0,1,1,1
0.007206333,0,0,0,1,0,1,1,1
0.007364375,0,0,0,0,0,1,1,1
0.007370375,0,0,0,0,1,1,1,1
0.007469000,0,0,0,0,0,1,1,1
0.007474042,0,0,0,0,1,1,1,1
0.007489125,0,0,0,0,0,1,1,1
0.007517333,0,1,0,0,0,1,1,1
0.007584750,0,0,0,0,0,1,1,1
0.007618958,0,0,1,0,0,1,1,1
0.007775958,0,0,0,0,0,1,1,1
0.007782000,0,0,0,1,0,1,1,1
0.007939000,0,0,0,0,0,1,1,1
0.007945000,0,0,0,0,1,1,1,1
0.008043625,0,0,0,0,0,1,1,1
0.008048667,0,0,0,0,1,1,1,1
0.008063750,0,0,0,0,0,1,1,1
0.008091958,0,1,0,0,0,1,1,1
0.008159375,0,0,0,0,0,1,1,1
0.008193583,0,0,1,0,0,1,1,1
0.008350583,0,0,0,0,0,1,1,1
0.008356625,0,0,0,1,0,1,1,1
0.008514625,0,0,0,0,0,1,1,1
0.008520667,0,0,0,0,1,1,1,1
0.008619292,0,0,0,0,0,1,1,1
0.008624333,0,0,0,0,1,1,1,1
0.008639417,0,0,0,0,0,1,1,1
0.008667583,0,1,0,0,0,1,1,1
0.008735042,0,0,0,0,0,1,1,1
0.008769250,0,0,1,0,0,1,1,1
0.008926208,0,0,0,0,0,1,1,1
0.008932250,0,0,0,1,0,1,1,1
0.009090250,0,0,0,0,0,1,1,1
0.009096292,0,0,0,0,1,1,1,1
0.009194917,0,0,0,0,0,1,1,1
0.009199958,0,0,0,0,1,1,1,1
0.009215042,0,0,0,0,0,1,1,1
0.009243208,0,1,0,0,0,1,1,1
0.009310625,0,0,0,0,0,1,1,1
0.009344875,0,0,1,0,0,1,1,1
0.009501833,0,0,0,0,0,1,1,1
0.009507875,0,0,0,1,0,1,1,1
0.009666917,0,0,0,0,0,1,1,1
0.009672917,0,0,0,0,1,1,1,1
0.009771583,0,0,0,0,0,1,1,1
0.009776583,0,0,0,0,1,1,1,1
0.009791708,0,0,0,0,0,1,1,1
0.009819875,0,1,0,0,0,1,1,1
0.009887292,0,0,0,0,0,1,1,1
0.009921500,0,0,1,0,0,1,1,1
0.010078542,0,0,0,0,0,1,1,1
0.010084583,0,0,0,1,0,1,1,1
0.010241542,0,0,0,0,0,1,1,1
0.010247583,0,0,0,0,1,1,1,1
0.010346208,0,0,0,0,0,1,1,1
0.010351250,0,0,0,0,1,1,1,1
0.010366333,0,0,0,0,0,1,1,1
0.010394542,0,1,0,0,0,1,1,1
0.010461958,0,0,0,0,0,1,1,1
0.010496167,0,0,1,0,0,1,1,1
0.010653208,0,0,0,0,0,1,1,1
0.010659208,0,0,0,1,0,1,1,1
0.010817250,0,0,0,0,0,1,1,1
0.010823292,0,0,0,0,1,1,1,1
0.010921917,0,0,0,0,0,1,1,1
0.010926917,0,0,0,0,1,1,1,1
0.010942042,0,0,0,0,0,1,1,1
0.010970208,0,1,0,0,0,1,1,1
0.011037625,0,0,0,0,0,1,1,1
0.011071875,0,0,1,0,0,1,1,1
0.011228875,0,0,0,0,0,1,1,1
0.011234875,0,0,0,1,0,1,1,1
0.011391875,0,0,0,0,0,1,1,1
0.011397917,0,0,0,0,1,1,1,1
0.011496542,0,0,0,0,0,1,1,1
0.011501583,0,0,0,0,1,1,1,1
0.011516667,0,0,0,0,0,1,1,1
0.011544875,0,1,0,0,0,1,1,1
0.011612292,0,0,0,0,0,1,1,1
0.011646500,0,0,1,0,0,1,1,1
0.011803500,0,0,0,0,0,1,1,1
0.011809542,0,0,0,1,0,1,1,1
0.011968542,0,0,0,0,0,1,1,1
0.011974583,0,0,0,0,1,1,1,1
0.012073208,0,0,0,0,0,1,1,1
0.012078250,0,0,0,0,1,1,1,1
0.012093333,0,0,0,0,0,1,1,1
0.012121500,0,1,0,0,0,1,1,1
0.012188958,0,0,0,0,0,1,1,1
0.012223167,0,0,1,0,0,1,1,1
0.012380167,0,0,0,0,0,1,1,1
0.012386208,0,0,0,1,0,1,1,1
0.012544208,0,0,0,0,0,1,1,1
0.012550250,0,0,0,0,1,1,1,1
0.012648875,0,0,0,0,0,1,1,1
0.012653917,0,0,0,0,1,1,1,1
0.012669000,0,0,0,0,0,1,1,1
0.012697167,0,1,0,0,0,1,1,1
0.012764625,0,0,0,0,0,1,1,1
0.012798833,0,0,1,0,0,1,1,1
0.012955833,0,0,0,0,0,1,1,1
0.012961875,0,0,0,1,0,1,1,1
0.013120875,0,0,0,0,0,1,1,1
0.013126875,0,0,0,0,1,1,1,1
0.013225500,0,0,0,0,0,1,1,1
0.013230542,0,0,0,0,1,1,1,1
0.013245625,0,0,0,0,0,1,1,1
0.013273833,0,1,0,0,0,1,1,1
0.013341250,0,0,0,0,0,1,1,1
0.013375458,0,0,1,0,0,1,1,1
0.013532458,0,0,0,0,0,1,1,1
0.013538500,0,0,0,1,0,1,1,1
0.013695458,0,0,0,0,0,1,1,1
0.013701500,0,0,0,0,1,1,1,1
0.013800125,0,0,0,0,0,1,1,1
0.013805167,0,0,0,0,1,1,1,1
0.013820250,0,0,0,0,0,1,1,1
0.013848458,0,1,0,0,0,1,1,1
0.013915875,0,0,0,0,0,1,1,1
0.013950083,0,0,1,0,0,1,1,1
0.014107083,0,0,0,0,0,1,1,1
0.014113125,0,0,0,1,0,1,1,1
0.014271125,0,0,0,0,0,1,1,1
0.014277167,0,0,0,0,1,1,1,1
0.014375792,0,0,0,0,0,1,1,1
0.014380792,0,0,0,0,1,1,1,1
0.014395917,0,0,0,0,0,1,1,1
0.014424083,0,1,0,0,0,1,1,1
0.014491500,0,0,0,0,0,1,1,1
0.014525708,0,0,1,0,0,1,1,1
0.014682708,0,0,0,0,0,1,1,1
0.014688750,0,0,0,1,0,1,1,1
0.014846750,0,0,0,0,0,1,1,1
0.014852792,0,0,0,0,1,1,1,1
0.014951417,0,0,0,0,0,1,1,1
0.014956458,0,0,0,0,1,1,1,1
0.014971542,0,0,0,0,0,1,1,1
0.014999708,0,1,0,0,0,1,1,1
0.015067167,0,0,0,0,0,1,1,1
0.015101375,0,0,1,0,0,1,1,1
0.015258375,0,0,0,0,0,1,1,1
0.015264417,0,0,0,1,0,1,1,1
0.015423417,0,0,0,0,0,1,1,1
0.015429417,0,0,0,0,1,1,1,1
0.015528042,0,0,0,0,0,1,1,1
0.015533083,0,0,0,0,1,1,1,1
0.015548167,0,0,0,0,0,1,1,1
0.015576333,0,1,0,0,0,1,1,1
0.015643792,0,0,0,0,0,1,1,1
0.015678000,0,0,1,0,0,1,1,1
0.015835000,0,0,0,0,0,1,1,1
0.015841042,0,0,0,1,0,1,1,1
0.015999000,0,0,0,0,0,1,1,1
0.016005042,0,0,0,0,1,1,1,1
0.016103667,0,0,0,0,0,1,1,1
0.016108708,0,0,0,0,1,1,1,1
0.016123792,0,0,0,0,0,1,1,1
0.016152000,0,1,0,0,0,1,1,1
0.016219417,0,0,0,0,0,1,1,1
0.016253625,0,0,1,0,0,1,1,1
0.016410625,0,0,0,0,0,1,1,1
0.016416667,0,0,0,1,0,1,1,1
0.016574667,0,0,0,0,0,1,1,1
0.016580708,0,0,0,0,1,1,1,1
0.016679333,0,0,0,0,0,1,1,1
0.016684333,0,0,0,0,1,1,1,1
0.016699458,0,0,0,0,0,1,1,1
0.016727625,0,1,0,0,0,1,1,1
0.016795042,0,0,0,0,0,1,1,1
0.016829250,0,0,1,0,0,1,1,1
0.016986250,0,0,0,0,0,1,1,1
0.016992292,0,0,0,1,0,1,1,1
0.017149292,0,0,0,0,0,1,1,1
0.017155333,0,0,0,0,1,1,1,1
0.017253917,0,0,0,0,0,1,1,1
0.017258958,0,0,0,0,1,1,1,1
0.017274083,0,0,0,0,0,1,1,1
0.017302250,0,1,0,0,0,1,1,1
0.017369667,0,0,0,0,0,1,1,1
0.017403875,0,0,1,0,0,1,1,1
0.017560875,0,0,0,0,0,1,1,1
0.017566917,0,0,0,1,0,1,1,1
0.017724917,0,0,0,0,0,1,1,1
0.017730958,0,0,0,0,1,1,1,1
0.017829583,0,0,0,0,0,1,1,1
0.017834625,0,0,0,0,1,1,1,1
0.017849708,0,0,0,0,0,1,1,1
0.017877875,0,1,0,0,0,1,1,1
0.017945292,0,0,0,0,0,1,1,1
0.017979542,0,0,1,0,0,1,1,1
0.018136500,0,0,0,0,0,1,1,1
0.018142542,0,0,0,1,0,1,1,1
0.018300542,0,0,0,0,0,1,1,1
0.018306583,0,0,0,0,1,1,1,1
0.018405208,0,0,0,0,0,1,1,1
0.018410250,0,0,0,0,1,1,1,1
0.018425333,0,0,0,0,0,1,1,1
0.018453542,0,1,0,0,0,1,1,1
0.018520958,0,0,0,0,0,1,1,1
0.018555167,0,0,1,0,0,1,1,1
0.018712167,0,0,0,0,0,1,1,1
0.018718208,0,0,0,1,0,1,1,1
0.018877208,0,0,0,0,0,1,1,1
0.018883250,0,0,0,0,1,1,1,1
0.018981875,0,0,0,0,0,1,1,1
0.018986875,0,0,0,0,1,1,1,1
0.019002000,0,0,0,0,0,1,1,1
0.019030167,0,1,0,0,0,1,1,1
0.019097583,0,0,0,0,0,1,1,1
0.019131792,0,0,1,0,0,1,1,1
0.019288792,0,0,0,0,0,1,1,1
0.019294833,0,0,0,1,0,1,1,1
0.019451833,0,0,0,0,0,1,1,1
0.019457875,0,0,0,0,1,1,1,1
0.019556500,0,0,0,0,0,1,1,1
0.019561542,0,0,0,0,1,1,1,1
0.019576625,0,0,0,0,0,1,1,1
0.019604792,0,1,0,0,0,1,1,1
0.019672250,0,0,0,0,0,1,1,1
0.019706458,0,0,1,0,0,1,1,1
0.019863458,0,0,0,0,0,1,1,1
0.019869500,0,0,0,1,0,1,1,1
0.020027500,0,0,0,0,0,1,1,1
0.020033500,0,0,0,0,1,1,1,1
0.020132125,0,0,0,0,0,1,1,1
0.020137167,0,0,0,0,1,1,1,1
0.020152292,0,0,0,0,0,1,1,1
0.020180458,0,1,0,0,0,1,1,1
0.020247875,0,0,0,0,0,1,1,1
0.020282083,0,0,1,0,0,1,1,1
0.020439083,0,0,0,0,0,1,1,1
0.020445125,0,0,0,1,0,1,1,1
0.020602083,0,0,0,0,0,1,1,1
0.020608125,0,0,0,0,1,1,1,1
0.020706750,0,0,0,0,0,1,1,1
0.020711792,0,0,0,0,1,1,1,1
0.020726875,0,0,0,0,0,1,1,1
0.020755083,0,1,0,0,0,1,1,1
0.020822500,0,0,0,0,0,1,1,1
0.020856708,0,0,1,0,0,1,1,1
0.021013708,0,0,0,0,0,1,1,1
0.021019750,0,0,0,1,0,1,1,1
0.021178750,0,0,0,0,0,1,1,1
0.021184792,0,0,0,0,1,1,1,1
0.021283417,0,0,0,0,0,1,1,1
0.021288417,0,0,0,0,1,1,1,1
0.021303542,0,0,0,0,0,1,1,1
0.021331708,0,1,0,0,0,1,1,1
0.021399125,0,0,0,0,0,1,1,1
0.021433333,0,0,1,0,0,1,1,1
0.021590333,0,0,0,0,0,1,1,1
0.021596375,0,0,0,1,0,1,1,1
0.021754375,0,0,0,0,0,1,1,1
0.021760417,0,0,0,0,1,1,1,1
0.021859042,0,0,0,0,0,1,1,1
0.021864083,0,0,0,0,1,1,1,1
0.021879167,0,0,0,0,0,1,1,1
0.021907333,0,1,0,0,0,1,1,1
0.021974792,0,0,0,0,0,1,1,1
0.022009000,0,0,1,0,0,1,1,1
0.022166000,0,0,0,0,0,1,1,1
0.022172042,0,0,0,1,0,1,1,1
0.022331042,0,0,0,0,0,1,1,1
0.022337083,0,0,0,0,1,1,1,1
0.022435667,0,0,0,0,0,1,1,1
0.022440708,0,0,0,0,1,1,1,1
0.022455833,0,0,0,0,0,1,1,1
0.022484000,0,1,0,0,0,1,1,1
0.022551417,0,0,0,0,0,1,1,1
0.022585625,0,0,1,0,0,1,1,1
0.022742625,0,0,0,0,0,1,1,1
0.022748667,0,0,0,1,0,1,1,1
0.022905667,0,0,0,0,0,1,1,1
0.022911708,0,0,0,0,1,1,1,1
0.023010292,0,0,0,0,0,1,1,1
0.023015333,0,0,0,0,1,1,1,1
0.023030417,0,0,0,0,0,1,1,1
0.023058625,0,1,0,0,0,1,1,1
0.023126042,0,0,0,0,0,1,1,1
0.023160250,0,0,1,0,0,1,1,1
0.023317250,0,0,0,0,0,1,1,1
0.023323292,0,0,0,1,0,1,1,1
0.023481292,0,0,0,0,0,1,1,1
0.023487292,0,0,0,0,1,1,1,1
0.023585917,0,0,0,0,0,1,1,1
0.023590958,0,0,0,0,1,1,1,1
0.023606042,0,0,0,0,0,1,1,1
0.023634250,0,1,0,0,0,1,1,1
0.023701667,0,0,0,0,0,1,1,1
0.023735875,0,0,1,0,0,1,1,1
0.023892875,0,0,0,0,0,1,1,1
0.023898917,0,0,0,1,0,1,1,1
0.024056917,0,0,0,0,0,1,1,1
0.024062958,0,0,0,0,1,1,1,1
0.024161583,0,0,0,0,0,1,1,1
0.024166625,0,0,0,0,1,1,1,1
0.024181708,0,0,0,0,0,1,1,1
0.024209875,0,1,0,0,0,1,1,1
0.024277292,0,0,0,0,0,1,1,1
0.024311542,0,0,1,0,0,1,1,1
0.024468500,0,0,0,0,0,1,1,1
0.024474542,0,0,0,1,0,1,1,1
0.024633542,0,0,0,0,0,1,1,1
0.024639583,0,0,0,0,1,1,1,1
0.024738208,0,0,0,0,0,1,1,1
0.024743250,0,0,0,0,1,1,1,1
0.024758333,0,0,0,0,0,1,1,1
0.024786500,0,1,0,0,0,1,1,1
0.024853917,0,0,0,0,0,1,1,1
0.024888125,0,0,1,0,0,1,1,1
0.025045125,0,0,0,0,0,1,1,1
0.025051167,0,0,0,1,0,1,1,1
0.025209167,0,0,0,0,0,1,1,1
0.025215208,0,0,0,0,1,1,1,1
0.025313792,0,0,0,0,0,1,1,1
0.025318833,0,0,0,0,1,1,1,1
0.025333917,0,0,0,0,0,1,1,1
0.025362125,0,1,0,0,0,1,1,1
0.025429542,0,0,0,0,0,1,1,1
0.025463750,0,0,1,0,0,1,1,1
0.025620750,0,0,0,0,0,1,1,1
0.025626792,0,0,0,1,0,1,1,1
0.025784792,0,0,0,0,0,1,1,1
0.025790792,0,0,0,0,1,1,1,1
0.025889417,0,0,0,0,0,1,1,1
0.025894458,0,0,0,0,1,1,1,1
0.025909542,0,0,0,0,0,1,1,1
0.025937750,0,1,0,0,0,1,1,1
0.026005167,0,0,0,0,0,1,1,1
0.026039375,0,0,1,0,0,1,1,1
0.026196333,0,0,0,0,0,1,1,1
0.026202375,0,0,0,1,0,1,1,1
0.026359375,0,0,0,0,0,1,1,1
0.026365417,0,0,0,0,1,1,1,1
0.026464042,0,0,0,0,0,1,1,1
0.026469042,0,0,0,0,1,1,1,1
0.026484167,0,0,0,0,0,1,1,1
0.026512333,0,1,0,0,0,1,1,1
0.026579750,0,0,0,0,0,1,1,1
0.026613958,0,0,1,0,0,1,1,1
0.026770958,0,0,0,0,0,1,1,1
0.026777000,0,0,0,1,0,1,1,1
0.026935000,0,0,0,0,0,1,1,1
0.026941042,0,0,0,0,1,1,1,1
0.027039667,0,0,0,0,0,1,1,1
0.027044708,0,0,0,0,1,1,1,1
0.027059792,0,0,0,0,0,1,1,1
0.027087958,0,1,0,0,0,1,1,1
0.027155375,0,0,0,0,0,1,1,1
0.027189625,0,0,1,0,0,1,1,1
0.027346583,0,0,0,0,0,1,1,1
0.027352625,0,0,0,1,0,1,1,1
0.027508625,0,0,0,0,0,1,1,1
0.027514667,0,0,0,0,1,1,1,1
0.027613292,0,0,0,0,0,1,1,1
0.027618292,0,0,0,0,1,1,1,1
0.027633417,0,0,0,0,0,1,1,1
0.027661583,0,1,0,0,0,1,1,1
0.027729000,0,0,0,0,0,1,1,1
0.027763208,0,0,1,0,0,1,1,1
0.027920208,0,0,0,0,0,1,1,1
0.027926250,0,0,0,1,0,1,1,1
0.028085250,0,0,0,0,0,1,1,1
0.028091292,0,0,0,0,1,1,1,1
0.028189917,0,0,0,0,0,1,1,1
0.028194958,0,0,0,0,1,1,1,1
0.028210042,0,0,0,0,0,1,1,1
0.028238208,0,1,0,0,0,1,1,1
0.028305667,0,0,0,0,0,1,1,1
0.028339875,0,0,1,0,0,1,1,1
0.028496875,0,0,0,0,0,1,1,1
0.028502917,0,0,0,1,0,1,1,1
0.028659875,0,0,0,0,0,1,1,1
0.028665917,0,0,0,0,1,1,1,1
0.028764542,0,0,0,0,0,1,1,1
0.028769583,0,0,0,0,1,1,1,1
0.028784667,0,0,0,0,0,1,1,1
0.028812875,0,1,0,0,0,1,1,1
0.028880292,0,0,0,0,0,1,1,1
0.028914500,0,0,1,0,0,1,1,1
0.029071500,0,0,0,0,0,1,1,1
0.029077542,0,0,0,1,0,1,1,1
0.029235542,0,0,0,0,0,1,1,1
0.029241583,0,0,0,0,1,1,1,1
0.029340208,0,0,0,0,0,1,1,1
0.029345250,0,0,0,0,1,1,1,1
0.029360333,0,0,0,0,0,1,1,1
0.029388500,0,1,0,0,0,1,1,1
0.029455958,0,0,0,0,0,1,1,1
0.029490167,0,0,1,0,0,1,1,1
0.029647167,0,0,0,0,0,1,1,1
0.029653208,0,0,0,1,0,1,1,1
0.029810208,0,0,0,0,0,1,1,1
0.029816250,0,0,0,0,1,1,1,1
0.029914875,0,0,0,0,0,1,1,1
0.029919917,0,0,0,0,1,1,1,1
0.029935000,0,0,0,0,0,1,1,1
0.029963167,0,1,0,0,0,1,1,1
0.030030583,0,0,0,0,0,1,1,1
0.030064792,0,0,1,0,0,1,1,1
0.030221792,0,0,0,0,0,1,1,1
0.030227833,0,0,0,1,0,1,1,1
0.030386833,0,0,0,0,0,1,1,1
0.030392875,0,0,0,0,1,1,1,1
0.030491500,0,0,0,0,0,1,1,1
0.030496542,0,0,0,0,1,1,1,1
0.030511625,0,0,0,0,0,1,1,1
0.030539792,0,1,0,0,0,1,1,1
0.030607208,0,0,0,0,0,1,1,1
0.030641458,0,0,1,0,0,1,1,1
0.030798417,0,0,0,0,0,1,1,1
0.030804458,0,0,0,1,0,1,1,1
0.030962458,0,0,0,0,0,1,1,1
0.030968500,0,0,0,0,1,1,1,1
0.031067125,0,0,0,0,0,1,1,1
0.031072167,0,0,0,0,1,1,1,1
0.031087250,0,0,0,0,0,1,1,1
0.031115417,0,1,0,0,0,1,1,1
0.031182875,0,0,0,0,0,1,1,1
0.031217083,0,0,1,0,0,1,1,1
0.031374083,0,0,0,0,0,1,1,1
0.031380125,0,0,0,1,0,1,1,1
0.031539125,0,0,0,0,0,1,1,1
0.031545167,0,0,0,0,1,1,1,1
0.031643792,0,0,0,0,0,1,1,1
0.031648833,0,0,0,0,1,1,1,1
0.031663917,0,0,0,0,0,1,1,1
0.031692083,0,1,0,0,0,1,1,1
0.031759542,0,0,0,0,0,1,1,1
0.031793750,0,0,1,0,0,1,1,1
0.031950750,0,0,0,0,0,1,1,1
0.031956792,0,0,0,1,0,1,1,1
0.032113792,0,0,0,0,0,1,1,1
0.032119792,0,0,0,0,1,1,1,1
0.032218458,0,0,0,0,0,1,1,1
0.032223458,0,0,0,0,1,1,1,1
0.032238583,0,0,0,0,0,1,1,1
0.032266750,0,1,0,0,0,1,1,1
0.032334167,0,0,0,0,0,1,1,1
0.032368375,0,0,1,0,0,1,1,1
0.032525375,0,0,0,0,0,1,1,1
0.032531417,0,0,0,1,0,1,1,1
0.032689417,0,0,0,0,0,1,1,1
0.032695458,0,0,0,0,1,1,1,1
0.032794083,0,0,0,0,0,1,1,1
0.032799125,0,0,0,0,1,1,1,1
0.032814208,0,0,0,0,0,1,1,1
0.032842375,0,1,0,0,0,1,1,1
0.032909792,0,0,0,0,0,1,1,1
0.032944000,0,0,1,0,0,1,1,1
0.033101000,0,0,0,0,0,1,1,1
0.033107042,0,0,0,1,0,1,1,1
0.033265042,0,0,0,0,0,1,1,1
0.033271083,0,0,0,0,1,1,1,1
0.033369667,0,0,0,0,0,1,1,1
0.033374708,0,0,0,0,1,1,1,1
0.033389792,0,0,0,0,0,1,1,1
0.033418000,0,1,0,0,0,1,1,1
0.033485417,0,0,0,0,0,1,1,1
0.033519625,0,0,1,0,0,1,1,1
0.033676625,0,0,0,0,0,1,1,1
0.033682625,0,0,0,1,0,1,1,1
0.033841625,0,0,0,0,0,1,1,1
0.033847667,0,0,0,0,1,1,1,1
0.033946292,0,0,0,0,0,1,1,1
0.033951333,0,0,0,0,1,1,1,1
0.033966417,0,0,0,0,0,1,1,1
0.033994625,0,1,0,0,0,1,1,1
0.034062042,0,0,0,0,0,1,1,1
0.034096250,0,0,1,0,0,1,1,1
0.034253250,0,0,0,0,0,1,1,1
0.034259292,0,0,0,1,0,1,1,1
0.034417250,0,0,0,0,0,1,1,1
0.034423292,0,0,0,0,1,1,1,1
0.034521917,0,0,0,0,0,1,1,1
0.034526958,0,0,0,0,1,1,1,1
0.034542042,0,0,0,0,0,1,1,1
0.034570250,0,1,0,0,0,1,1,1
0.034637667,0,0,0,0,0,1,1,1
0.034671875,0,0,1,0,0,1,1,1
0.034828875,0,0,0,0,0,1,1,1
0.034834917,0,0,0,1,0,1,1,1
0.034992917,0,0,0,0,0,1,1,1
0.034998917,0,0,0,0,1,1,1,1
0.035097542,0,0,0,0,0,1,1,1
0.035102583,0,0,0,0,1,1,1,1
0.035117667,0,0,0,0,0,1,1,1
0.035145875,0,1,0,0,0,1,1,1
0.035213292,0,0,0,0,0,1,1,1
0.035247500,0,0,1,0,0,1,1,1
0.035404500,0,0,0,0,0,1,1,1
0.035410542,0,0,0,1,0,1,1,1
0.035567542,0,0,0,0,0,1,1,1
0.035573542,0,0,0,0,1,1,1,1
0.035672167,0,0,0,0,0,1,1,1
0.035677208,0,0,0,0,1,1,1,1
0.035692292,0,0,0,0,0,1,1,1
0.035720500,0,1,0,0,0,1,1,1
0.035787917,0,0,0,0,0,1,1,1
0.035822125,0,0,1,0,0,1,1,1
0.035979125,0,0,0,0,0,1,1,1
0.035985167,0,0,0,1,0,1,1,1
0.036143167,0,0,0,0,0,1,1,1
0.036149208,0,0,0,0,1,1,1,1
0.036247833,0,0,0,0,0,1,1,1
0.036252875,0,0,0,0,1,1,1,1
0.036267958,0,0,0,0,0,1,1,1
0.036296125,0,1,0,0,0,1,1,1
0.036363583,0,0,0,0,0,1,1,1
0.036397792,0,0,1,0,0,1,1,1
0.036554792,0,0,0,0,0,1,1,1
0.036560833,0,0,0,1,0,1,1,1
0.036718833,0,0,0,0,0,1,1,1
0.036724833,0,0,0,0,1,1,1,1
0.036823458,0,0,0,0,0,1,1,1
0.036828500,0,0,0,0,1,1,1,1
0.036843583,0,0,0,0,0,1,1,1
0.036871792,0,1,0,0,0,1,1,1
0.036939208,0,0,0,0,0,1,1,1
0.036973417,0,0,1,0,0,1,1,1
0.037130417,0,0,0,0,0,1,1,1
0.037136458,0,0,0,1,0,1,1,1
0.037295458,0,0,0,0,0,1,1,1
0.037301500,0,0,0,0,1,1,1,1
0.037400125,0,0,0,0,0,1,1,1
0.037405167,0,0,0,0,1,1,1,1
0.037420250,0,0,0,0,0,1,1,1
0.037448417,0,1,0,0,0,1,1,1
0.037515875,0,0,0,0,0,1,1,1
0.037550083,0,0,1,0,0,1,1,1
0.037707083,0,0,0,0,0,1,1,1
0.037713125,0,0,0,1,0,1,1,1
0.037870125,0,0,0,0,0,1,1,1
0.037876167,0,0,0,0,1,1,1,1
0.037974792,0,0,0,0,0,1,1,1
0.037979792,0,0,0,0,1,1,1,1
0.037994917,0,0,0,0,0,1,1,1
0.038023083,0,1,0,0,0,1,1,1
0.038090500,0,0,0,0,0,1,1,1
0.038124708,0,0,1,0,0,1,1,1
0.038281708,0,0,0,0,0,1,1,1
0.038287750,0,0,0,1,0,1,1,1
0.038445750,0,0,0,0,0,1,1,1
0.038451792,0,0,0,0,1,1,1,1
0.038550417,0,0,0,0,0,1,1,1
0.038555458,0,0,0,0,1,1,1,1
0.038570542,0,0,0,0,0,1,1,1
0.038598708,0,1,0,0,0,1,1,1
0.038666125,0,0,0,0,0,1,1,1
0.038700375,0,0,1,0,0,1,1,1
0.038857375,0,0,0,0,0,1,1,1
0.038863417,0,0,0,1,0,1,1,1
0.039020417,0,0,0,0,0,1,1,1
0.039026458,0,0,0,0,1,1,1,1
0.039125083,0,0,0,0,0,1,1,1
0.039130083,0,0,0,0,1,1,1,1
0.039145208,0,0,0,0,0,1,1,1
0.039173375,0,1,0,0,0,1,1,1
0.039240792,0,0,0,0,0,1,1,1
0.039275000,0,0,1,0,0,1,1,1
0.039432000,0,0,0,0,0,1,1,1
0.039438042,0,0,0,1,0,1,1,1
0.039597083,0,0,0,0,0,1,1,1
0.039603083,0,0,0,0,1,1,1,1
0.039701708,0,0,0,0,0,1,1,1
0.039706750,0,0,0,0,1,1,1,1
0.039721833,0,0,0,0,0,1,1,1
0.039750042,0,1,0,0,0,1,1,1
0.039817458,0,0,0,0,0,1,1,1
0.039851667,0,0,1,0,0,1,1,1
0.040008667,0,0,0,0,0,1,1,1
0.040014708,0,0,0,1,0,1,1,1
0.040172708,0,0,0,0,0,1,1,1
0.040178750,0,0,0,0,1,1,1,1
0.040277375,0,0,0,0,0,1,1,1
0.040282417,0,0,0,0,1,1,1,1
0.040297500,0,0,0,0,0,1,1,1
0.040325667,0,1,0,0,0,1,1,1
0.040393083,0,0,0,0,0,1,1,1
0.040427292,0,0,1,0,0,1,1,1
0.040584292,0,0,0,0,0,1,1,1
0.040590333,0,0,0,1,0,1,1,1
0.040749375,0,0,0,0,0,1,1,1
0.040755375,0,0,0,0,1,1,1,1
0.040854000,0,0,0,0,0,1,1,1
0.040859042,0,0,0,0,1,1,1,1
